Time Stamp,ID,Extended,Dir,Bus,LEN,D1,D2,D3,D4,D5,D6,D7,D8
17410415,00000603,false,Rx,0,8,40,00,50,03,00,00,00,00,
17410960,00000583,false,Rx,0,8,43,00,50,03,89,C3,02,00,
17411499,00000603,false,Rx,0,8,40,01,50,00,00,00,00,00,
17412248,00000583,false,Rx,0,8,41,01,50,00,FF,FF,00,00,
17412543,00000603,false,Rx,0,8,60,00,00,00,00,00,00,00,
17413251,00000583,false,Rx,0,8,00,7B,20,0D,0A,20,20,20,
17413509,00000603,false,Rx,0,8,70,00,00,00,00,00,00,00,
17414250,00000583,false,Rx,0,8,10,22,49,6E,76,65,72,74,
17414467,00000603,false,Rx,0,8,60,00,00,00,00,00,00,00,
17415248,00000583,false,Rx,0,8,00,65,72,22,3A,20,7B,22,
17415558,00000603,false,Rx,0,8,70,00,00,00,00,00,00,00,
17416255,00000583,false,Rx,0,8,10,75,6E,69,74,22,3A,22,
17416470,00000603,false,Rx,0,8,60,00,00,00,00,00,00,00,
17417236,00000583,false,Rx,0,8,00,30,3D,4E,6F,6E,65,2C,
17417485,00000603,false,Rx,0,8,70,00,00,00,00,00,00,00,
17418254,00000583,false,Rx,0,8,10,20,31,3D,4C,65,61,66,
17418507,00000603,false,Rx,0,8,60,00,00,00,00,00,00,00,
17419093,00000583,false,Rx,0,8,00,5F,47,65,6E,31,2C,20,
17419366,00000603,false,Rx,0,8,70,00,00,00,00,00,00,00,
17419934,00000583,false,Rx,0,8,10,32,3D,47,53,34,35,30,
17420439,00000603,false,Rx,0,8,60,00,00,00,00,00,00,00,
17421228,00000583,false,Rx,0,8,00,48,2C,20,33,3D,55,73,
17421487,00000603,false,Rx,0,8,70,00,00,00,00,00,00,00,
17422267,00000583,false,Rx,0,8,10,65,72,43,41,4E,2C,20,
17422520,00000603,false,Rx,0,8,60,00,00,00,00,00,00,00,
17423271,00000583,false,Rx,0,8,00,34,3D,4F,70,65,6E,49,
17423518,00000603,false,Rx,0,8,70,00,00,00,00,00,00,00,
17424091,00000583,false,Rx,0,8,10,2C,20,35,3D,50,72,69,
17424455,00000603,false,Rx,0,8,60,00,00,00,00,00,00,00,
17425178,00000583,false,Rx,0,8,00,75,73,5F,47,65,6E,33,
17425421,00000603,false,Rx,0,8,70,00,00,00,00,00,00,00,
17426218,00000583,false,Rx,0,8,10,2C,20,36,3D,4F,75,74,
17426463,00000603,false,Rx,0,8,60,00,00,00,00,00,00,00,
17427233,00000583,false,Rx,0,8,00,6C,61,6E,64,65,72,2C,
17427480,00000603,false,Rx,0,8,70,00,00,00,00,00,00,00,
17428446,00000583,false,Rx,0,8,10,20,37,3D,47,53,33,30,
17428839,00000603,false,Rx,0,8,60,00,00,00,00,00,00,00,
17429790,00000583,false,Rx,0,8,00,30,48,20,38,3D,52,65,
17430164,00000603,false,Rx,0,8,70,00,00,00,00,00,00,00,
17430726,00000583,false,Rx,0,8,10,61,72,4F,75,74,6C,61,
17431111,00000603,false,Rx,0,8,60,00,00,00,00,00,00,00,
17431673,00000583,false,Rx,0,8,00,6E,64,65,72,22,2C,22,
17432005,00000603,false,Rx,0,8,70,00,00,00,00,00,00,00,
17432808,00000583,false,Rx,0,8,10,69,64,22,3A,35,2C,22,
17433007,00000603,false,Rx,0,8,60,00,00,00,00,00,00,00,
17433893,00000583,false,Rx,0,8,00,76,61,6C,75,65,22,3A,
17434267,00000603,false,Rx,0,8,70,00,00,00,00,00,00,00,
17435125,00000583,false,Rx,0,8,10,30,2E,30,30,2C,22,69,
17435444,00000603,false,Rx,0,8,60,00,00,00,00,00,00,00,
17436208,00000583,false,Rx,0,8,00,73,70,61,72,61,6D,22,
17436504,00000603,false,Rx,0,8,70,00,00,00,00,00,00,00,
17437243,00000583,false,Rx,0,8,10,3A,74,72,75,65,2C,22,
17437550,00000603,false,Rx,0,8,60,00,00,00,00,00,00,00,
17438242,00000583,false,Rx,0,8,00,6D,69,6E,69,6D,75,6D,
17438546,00000603,false,Rx,0,8,70,00,00,00,00,00,00,00,
17439257,00000583,false,Rx,0,8,10,22,3A,30,2E,30,30,2C,
17439565,00000603,false,Rx,0,8,60,00,00,00,00,00,00,00,
17440256,00000583,false,Rx,0,8,00,22,6D,61,78,69,6D,75,
17440580,00000603,false,Rx,0,8,70,00,00,00,00,00,00,00,
17441246,00000583,false,Rx,0,8,10,6D,22,3A,38,2E,30,30,
17441562,00000603,false,Rx,0,8,60,00,00,00,00,00,00,00,
17442250,00000583,false,Rx,0,8,00,2C,22,64,65,66,61,75,
17442554,00000603,false,Rx,0,8,70,00,00,00,00,00,00,00,
17443251,00000583,false,Rx,0,8,10,6C,74,22,3A,30,2E,30,
17443548,00000603,false,Rx,0,8,60,00,00,00,00,00,00,00,
17444249,00000583,false,Rx,0,8,00,30,2C,22,63,61,74,65,
17444551,00000603,false,Rx,0,8,70,00,00,00,00,00,00,00,
17445252,00000583,false,Rx,0,8,10,67,6F,72,79,22,3A,22,
17445547,00000603,false,Rx,0,8,60,00,00,00,00,00,00,00,
17446248,00000583,false,Rx,0,8,00,47,65,6E,65,72,61,6C,
17446568,00000603,false,Rx,0,8,70,00,00,00,00,00,00,00,
17447263,00000583,false,Rx,0,8,10,20,53,65,74,75,70,22,
17447569,00000603,false,Rx,0,8,60,00,00,00,00,00,00,00,
17448252,00000583,false,Rx,0,8,00,2C,22,69,22,3A,30,7D,
17448563,00000603,false,Rx,0,8,70,00,00,00,00,00,00,00,
17449243,00000583,false,Rx,0,8,10,2C,0D,0A,20,20,20,22,
17449571,00000603,false,Rx,0,8,60,00,00,00,00,00,00,00,
17450405,00000583,false,Rx,0,8,00,56,65,68,69,63,6C,65,
17450739,00000603,false,Rx,0,8,70,00,00,00,00,00,00,00,
17451346,00000583,false,Rx,0,8,10,22,3A,20,7B,22,75,6E,
17451670,00000603,false,Rx,0,8,60,00,00,00,00,00,00,00,
17452313,00000583,false,Rx,0,8,00,69,74,22,3A,22,30,3D,
17452640,00000603,false,Rx,0,8,70,00,00,00,00,00,00,00,
17453247,00000583,false,Rx,0,8,10,42,4D,57,5F,45,34,36,
17453567,00000603,false,Rx,0,8,60,00,00,00,00,00,00,00,
17454247,00000583,false,Rx,0,8,00,2C,20,31,3D,42,4D,57,
17454552,00000603,false,Rx,0,8,70,00,00,00,00,00,00,00,
17455250,00000583,false,Rx,0,8,10,5F,45,36,35,2C,20,32,
17455585,00000603,false,Rx,0,8,60,00,00,00,00,00,00,00,
17456234,00000583,false,Rx,0,8,00,3D,43,6C,61,73,73,69,
17456557,00000603,false,Rx,0,8,70,00,00,00,00,00,00,00,
17457237,00000583,false,Rx,0,8,10,63,2C,20,33,3D,4E,6F,
17457566,00000603,false,Rx,0,8,60,00,00,00,00,00,00,00,
17458253,00000583,false,Rx,0,8,00,6E,65,2C,20,35,3D,42,
17458600,00000603,false,Rx,0,8,70,00,00,00,00,00,00,00,
17459255,00000583,false,Rx,0,8,10,4D,57,5F,45,33,39,2C,
17459594,00000603,false,Rx,0,8,60,00,00,00,00,00,00,00,
17460219,00000583,false,Rx,0,8,00,20,36,3D,56,41,47,2C,
17460553,00000603,false,Rx,0,8,70,00,00,00,00,00,00,00,
17461221,00000583,false,Rx,0,8,10,20,37,3D,53,75,62,61,
17461550,00000603,false,Rx,0,8,60,00,00,00,00,00,00,00,
17462234,00000583,false,Rx,0,8,00,72,75,2C,20,38,3D,42,
17462568,00000603,false,Rx,0,8,70,00,00,00,00,00,00,00,
17463212,00000583,false,Rx,0,8,10,4D,57,5F,45,33,31,22,
17463551,00000603,false,Rx,0,8,60,00,00,00,00,00,00,00,
17464223,00000583,false,Rx,0,8,00,2C,22,69,64,22,3A,36,
17464558,00000603,false,Rx,0,8,70,00,00,00,00,00,00,00,
17465225,00000583,false,Rx,0,8,10,2C,22,76,61,6C,75,65,
17465577,00000603,false,Rx,0,8,60,00,00,00,00,00,00,00,
17466219,00000583,false,Rx,0,8,00,22,3A,30,2E,30,30,2C,
17466566,00000603,false,Rx,0,8,70,00,00,00,00,00,00,00,
17467237,00000583,false,Rx,0,8,10,22,69,73,70,61,72,61,
17467618,00000603,false,Rx,0,8,60,00,00,00,00,00,00,00,
17468185,00000583,false,Rx,0,8,00,6D,22,3A,74,72,75,65,
17468570,00000603,false,Rx,0,8,70,00,00,00,00,00,00,00,
17469182,00000583,false,Rx,0,8,10,2C,22,6D,69,6E,69,6D,
17469573,00000603,false,Rx,0,8,60,00,00,00,00,00,00,00,
17470197,00000583,false,Rx,0,8,00,75,6D,22,3A,30,2E,30,
17470588,00000603,false,Rx,0,8,70,00,00,00,00,00,00,00,
17471181,00000583,false,Rx,0,8,10,30,2C,22,6D,61,78,69,
17471577,00000603,false,Rx,0,8,60,00,00,00,00,00,00,00,
17472182,00000583,false,Rx,0,8,00,6D,75,6D,22,3A,38,2E,
17472565,00000603,false,Rx,0,8,70,00,00,00,00,00,00,00,
17473181,00000583,false,Rx,0,8,10,30,30,2C,22,64,65,66,
17473559,00000603,false,Rx,0,8,60,00,00,00,00,00,00,00,
17474187,00000583,false,Rx,0,8,00,61,75,6C,74,22,3A,30,
17474568,00000603,false,Rx,0,8,70,00,00,00,00,00,00,00,
17475184,00000583,false,Rx,0,8,10,2E,30,30,2C,22,63,61,
17475575,00000603,false,Rx,0,8,60,00,00,00,00,00,00,00,
17476223,00000583,false,Rx,0,8,00,74,65,67,6F,72,79,22,
17476656,00000603,false,Rx,0,8,70,00,00,00,00,00,00,00,
17477355,00000583,false,Rx,0,8,10,3A,22,47,65,6E,65,72,
17477804,00000603,false,Rx,0,8,60,00,00,00,00,00,00,00,
17478442,00000583,false,Rx,0,8,00,61,6C,20,53,65,74,75,
17478912,00000603,false,Rx,0,8,70,00,00,00,00,00,00,00,
17479750,00000583,false,Rx,0,8,10,70,22,2C,22,69,22,3A,
17480317,00000603,false,Rx,0,8,60,00,00,00,00,00,00,00,
17481115,00000583,false,Rx,0,8,00,31,7D,2C,0D,0A,20,20,
17481585,00000603,false,Rx,0,8,70,00,00,00,00,00,00,00,
17482188,00000583,false,Rx,0,8,10,20,22,54,72,61,6E,73,
17482631,00000603,false,Rx,0,8,60,00,00,00,00,00,00,00,
17483370,00000583,false,Rx,0,8,00,6D,69,73,73,69,6F,6E,
17483845,00000603,false,Rx,0,8,70,00,00,00,00,00,00,00,
17484706,00000583,false,Rx,0,8,10,22,3A,20,7B,22,75,6E,
17485272,00000603,false,Rx,0,8,60,00,00,00,00,00,00,00,
17486006,00000583,false,Rx,0,8,00,69,74,22,3A,22,30,3D,
17486500,00000603,false,Rx,0,8,70,00,00,00,00,00,00,00,
17487143,00000583,false,Rx,0,8,10,4D,61,6E,75,61,6C,2C,
17487618,00000603,false,Rx,0,8,60,00,00,00,00,00,00,00,
17488200,00000583,false,Rx,0,8,00,20,31,3D,41,75,74,6F,
17488686,00000603,false,Rx,0,8,70,00,00,00,00,00,00,00,
17489410,00000583,false,Rx,0,8,10,22,2C,22,69,64,22,3A,
17489932,00000603,false,Rx,0,8,60,00,00,00,00,00,00,00,
17490610,00000583,false,Rx,0,8,00,37,38,2C,22,76,61,6C,
17491185,00000603,false,Rx,0,8,70,00,00,00,00,00,00,00,
17492031,00000583,false,Rx,0,8,10,75,65,22,3A,30,2E,30,
17492525,00000603,false,Rx,0,8,60,00,00,00,00,00,00,00,
17493149,00000583,false,Rx,0,8,00,30,2C,22,69,73,70,61,
17493637,00000603,false,Rx,0,8,70,00,00,00,00,00,00,00,
17494214,00000583,false,Rx,0,8,10,72,61,6D,22,3A,74,72,
17494901,00000603,false,Rx,0,8,60,00,00,00,00,00,00,00,
17495685,00000583,false,Rx,0,8,00,75,65,2C,22,6D,69,6E,
17496344,00000603,false,Rx,0,8,70,00,00,00,00,00,00,00,
17497124,00000583,false,Rx,0,8,10,69,6D,75,6D,22,3A,30,
17497742,00000603,false,Rx,0,8,60,00,00,00,00,00,00,00,
17498408,00000583,false,Rx,0,8,00,2E,30,30,2C,22,6D,61,
17499065,00000603,false,Rx,0,8,70,00,00,00,00,00,00,00,
17499753,00000583,false,Rx,0,8,10,78,69,6D,75,6D,22,3A,
17500449,00000603,false,Rx,0,8,60,00,00,00,00,00,00,00,
17501128,00000583,false,Rx,0,8,00,31,2E,30,30,2C,22,64,
17501753,00000603,false,Rx,0,8,70,00,00,00,00,00,00,00,
17502494,00000583,false,Rx,0,8,10,65,66,61,75,6C,74,22,
17503283,00000603,false,Rx,0,8,60,00,00,00,00,00,00,00,
17504066,00000583,false,Rx,0,8,00,3A,30,2E,30,30,2C,22,
17504742,00000603,false,Rx,0,8,70,00,00,00,00,00,00,00,
17505428,00000583,false,Rx,0,8,10,63,61,74,65,67,6F,72,
17506197,00000603,false,Rx,0,8,60,00,00,00,00,00,00,00,
17506868,00000583,false,Rx,0,8,00,79,22,3A,22,47,65,6E,
17507571,00000603,false,Rx,0,8,70,00,00,00,00,00,00,00,
17508144,00000583,false,Rx,0,8,10,65,72,61,6C,20,53,65,
17508835,00000603,false,Rx,0,8,60,00,00,00,00,00,00,00,
17509668,00000583,false,Rx,0,8,00,74,75,70,22,2C,22,69,
17510421,00000603,false,Rx,0,8,70,00,00,00,00,00,00,00,
17511130,00000583,false,Rx,0,8,10,22,3A,32,7D,2C,0D,0A,
17511801,00000603,false,Rx,0,8,60,00,00,00,00,00,00,00,
17512489,00000583,false,Rx,0,8,00,20,20,20,22,69,6E,74,
17513330,00000603,false,Rx,0,8,70,00,00,00,00,00,00,00,
17513913,00000583,false,Rx,0,8,10,65,72,66,61,63,65,22,
17514556,00000603,false,Rx,0,8,60,00,00,00,00,00,00,00,
17515133,00000583,false,Rx,0,8,00,3A,20,7B,22,75,6E,69,
17515709,00000603,false,Rx,0,8,70,00,00,00,00,00,00,00,
17516317,00000583,false,Rx,0,8,10,74,22,3A,22,30,3D,55,
17516864,00000603,false,Rx,0,8,60,00,00,00,00,00,00,00,
17517465,00000583,false,Rx,0,8,00,6E,75,73,65,64,2C,20,
17518008,00000603,false,Rx,0,8,70,00,00,00,00,00,00,00,
17518587,00000583,false,Rx,0,8,10,31,3D,69,33,4C,49,4D,
17519158,00000603,false,Rx,0,8,60,00,00,00,00,00,00,00,
17519726,00000583,false,Rx,0,8,00,2C,20,32,3D,43,68,61,
17520274,00000603,false,Rx,0,8,70,00,00,00,00,00,00,00,
17520851,00000583,false,Rx,0,8,10,64,65,6D,6F,2C,20,33,
17521416,00000603,false,Rx,0,8,60,00,00,00,00,00,00,00,
17521998,00000583,false,Rx,0,8,00,3D,43,50,43,22,2C,22,
17522481,00000603,false,Rx,0,8,70,00,00,00,00,00,00,00,
17523123,00000583,false,Rx,0,8,10,69,64,22,3A,33,39,2C,
17523635,00000603,false,Rx,0,8,60,00,00,00,00,00,00,00,
17524226,00000583,false,Rx,0,8,00,22,76,61,6C,75,65,22,
17524795,00000603,false,Rx,0,8,70,00,00,00,00,00,00,00,
17525515,00000583,false,Rx,0,8,10,3A,30,2E,30,30,2C,22,
17526292,00000603,false,Rx,0,8,60,00,00,00,00,00,00,00,
17527109,00000583,false,Rx,0,8,00,69,73,70,61,72,61,6D,
17527828,00000603,false,Rx,0,8,70,00,00,00,00,00,00,00,
17528685,00000583,false,Rx,0,8,10,22,3A,74,72,75,65,2C,
17529401,00000603,false,Rx,0,8,60,00,00,00,00,00,00,00,
17530124,00000583,false,Rx,0,8,00,22,6D,69,6E,69,6D,75,
17530777,00000603,false,Rx,0,8,70,00,00,00,00,00,00,00,
17531480,00000583,false,Rx,0,8,10,6D,22,3A,30,2E,30,30,
17532288,00000603,false,Rx,0,8,60,00,00,00,00,00,00,00,
17532951,00000583,false,Rx,0,8,00,2C,22,6D,61,78,69,6D,
17533635,00000603,false,Rx,0,8,70,00,00,00,00,00,00,00,
17534230,00000583,false,Rx,0,8,10,75,6D,22,3A,33,2E,30,
17534829,00000603,false,Rx,0,8,60,00,00,00,00,00,00,00,
17535604,00000583,false,Rx,0,8,00,30,2C,22,64,65,66,61,
17536220,00000603,false,Rx,0,8,70,00,00,00,00,00,00,00,
17536996,00000583,false,Rx,0,8,10,75,6C,74,22,3A,30,2E,
17537553,00000603,false,Rx,0,8,60,00,00,00,00,00,00,00,
17538159,00000583,false,Rx,0,8,00,30,30,2C,22,63,61,74,
17538700,00000603,false,Rx,0,8,70,00,00,00,00,00,00,00,
17539263,00000583,false,Rx,0,8,10,65,67,6F,72,79,22,3A,
17539831,00000603,false,Rx,0,8,60,00,00,00,00,00,00,00,
17540521,00000583,false,Rx,0,8,00,22,47,65,6E,65,72,61,
17541307,00000603,false,Rx,0,8,70,00,00,00,00,00,00,00,
17542111,00000583,false,Rx,0,8,10,6C,20,53,65,74,75,70,
17542776,00000603,false,Rx,0,8,60,00,00,00,00,00,00,00,
17543481,00000583,false,Rx,0,8,00,22,2C,22,69,22,3A,33,
17544283,00000603,false,Rx,0,8,70,00,00,00,00,00,00,00,
17545155,00000583,false,Rx,0,8,10,7D,2C,0D,0A,20,20,20,
17545878,00000603,false,Rx,0,8,60,00,00,00,00,00,00,00,
17546724,00000583,false,Rx,0,8,00,22,63,68,61,72,67,65,
17547451,00000603,false,Rx,0,8,70,00,00,00,00,00,00,00,
17548137,00000583,false,Rx,0,8,10,6D,6F,64,65,73,22,3A,
17548818,00000603,false,Rx,0,8,60,00,00,00,00,00,00,00,
17549476,00000583,false,Rx,0,8,00,20,7B,22,75,6E,69,74,
17550286,00000603,false,Rx,0,8,70,00,00,00,00,00,00,00,
17551064,00000583,false,Rx,0,8,10,22,3A,22,30,3D,4F,66,
17551689,00000603,false,Rx,0,8,60,00,00,00,00,00,00,00,
17552336,00000583,false,Rx,0,8,00,66,2C,20,31,3D,45,58,
17553038,00000603,false,Rx,0,8,70,00,00,00,00,00,00,00,
17553807,00000583,false,Rx,0,8,10,54,5F,44,49,47,49,2C,
17554518,00000603,false,Rx,0,8,60,00,00,00,00,00,00,00,
17555159,00000583,false,Rx,0,8,00,20,32,3D,56,6F,6C,74,
17555835,00000603,false,Rx,0,8,70,00,00,00,00,00,00,00,
17556504,00000583,false,Rx,0,8,10,5F,41,6D,70,65,72,61,
17557182,00000603,false,Rx,0,8,60,00,00,00,00,00,00,00,
17557855,00000583,false,Rx,0,8,00,2C,20,33,3D,4C,65,61,
17558501,00000603,false,Rx,0,8,70,00,00,00,00,00,00,00,
17559113,00000583,false,Rx,0,8,10,66,5F,50,44,4D,2C,20,
17559668,00000603,false,Rx,0,8,60,00,00,00,00,00,00,00,
17560273,00000583,false,Rx,0,8,00,34,3D,54,65,73,6C,61,
17560890,00000603,false,Rx,0,8,70,00,00,00,00,00,00,00,
17561424,00000583,false,Rx,0,8,10,4F,49,2C,20,35,3D,4F,
17562055,00000603,false,Rx,0,8,60,00,00,00,00,00,00,00,
17562597,00000583,false,Rx,0,8,00,75,74,5F,6C,61,6E,64,
17563165,00000603,false,Rx,0,8,70,00,00,00,00,00,00,00,
17563695,00000583,false,Rx,0,8,10,65,72,20,36,3D,45,6C,
17564216,00000603,false,Rx,0,8,60,00,00,00,00,00,00,00,
17564750,00000583,false,Rx,0,8,00,63,6F,6E,22,2C,22,69,
17565276,00000603,false,Rx,0,8,70,00,00,00,00,00,00,00,
17565821,00000583,false,Rx,0,8,10,64,22,3A,33,37,2C,22,
17566396,00000603,false,Rx,0,8,60,00,00,00,00,00,00,00,
17566943,00000583,false,Rx,0,8,00,76,61,6C,75,65,22,3A,
17567523,00000603,false,Rx,0,8,70,00,00,00,00,00,00,00,
17568078,00000583,false,Rx,0,8,10,30,2E,30,30,2C,22,69,
17568602,00000603,false,Rx,0,8,60,00,00,00,00,00,00,00,
17569146,00000583,false,Rx,0,8,00,73,70,61,72,61,6D,22,
17569682,00000603,false,Rx,0,8,70,00,00,00,00,00,00,00,
17570270,00000583,false,Rx,0,8,10,3A,74,72,75,65,2C,22,
17570802,00000603,false,Rx,0,8,60,00,00,00,00,00,00,00,
17571345,00000583,false,Rx,0,8,00,6D,69,6E,69,6D,75,6D,
17571889,00000603,false,Rx,0,8,70,00,00,00,00,00,00,00,
17572424,00000583,false,Rx,0,8,10,22,3A,30,2E,30,30,2C,
17573017,00000603,false,Rx,0,8,60,00,00,00,00,00,00,00,
17573519,00000583,false,Rx,0,8,00,22,6D,61,78,69,6D,75,
17574064,00000603,false,Rx,0,8,70,00,00,00,00,00,00,00,
17574597,00000583,false,Rx,0,8,10,6D,22,3A,36,2E,30,30,
17575194,00000603,false,Rx,0,8,60,00,00,00,00,00,00,00,
17575745,00000583,false,Rx,0,8,00,2C,22,64,65,66,61,75,
17576279,00000603,false,Rx,0,8,70,00,00,00,00,00,00,00,
17576821,00000583,false,Rx,0,8,10,6C,74,22,3A,30,2E,30,
17577399,00000603,false,Rx,0,8,60,00,00,00,00,00,00,00,
17577943,00000583,false,Rx,0,8,00,30,2C,22,63,61,74,65,
17578514,00000603,false,Rx,0,8,70,00,00,00,00,00,00,00,
17579079,00000583,false,Rx,0,8,10,67,6F,72,79,22,3A,22,
17579616,00000603,false,Rx,0,8,60,00,00,00,00,00,00,00,
17580159,00000583,false,Rx,0,8,00,47,65,6E,65,72,61,6C,
17580650,00000603,false,Rx,0,8,70,00,00,00,00,00,00,00,
17581192,00000583,false,Rx,0,8,10,20,53,65,74,75,70,22,
17581673,00000603,false,Rx,0,8,60,00,00,00,00,00,00,00,
17582270,00000583,false,Rx,0,8,00,2C,22,69,22,3A,34,7D,
17582819,00000603,false,Rx,0,8,70,00,00,00,00,00,00,00,
17583366,00000583,false,Rx,0,8,10,2C,0D,0A,20,20,20,22,
17583918,00000603,false,Rx,0,8,60,00,00,00,00,00,00,00,
17584471,00000583,false,Rx,0,8,00,49,6E,76,65,72,74,65,
17585031,00000603,false,Rx,0,8,70,00,00,00,00,00,00,00,
17585572,00000583,false,Rx,0,8,10,72,43,61,6E,22,3A,20,
17586151,00000603,false,Rx,0,8,60,00,00,00,00,00,00,00,
17586695,00000583,false,Rx,0,8,00,7B,22,75,6E,69,74,22,
17587277,00000603,false,Rx,0,8,70,00,00,00,00,00,00,00,
17587820,00000583,false,Rx,0,8,10,3A,22,30,3D,43,41,4E,
17588402,00000603,false,Rx,0,8,60,00,00,00,00,00,00,00,
17588946,00000583,false,Rx,0,8,00,31,2C,20,31,3D,43,41,
17589528,00000603,false,Rx,0,8,70,00,00,00,00,00,00,00,
17590069,00000583,false,Rx,0,8,10,4E,32,22,2C,22,69,64,
17590603,00000603,false,Rx,0,8,60,00,00,00,00,00,00,00,
17591145,00000583,false,Rx,0,8,00,22,3A,37,30,2C,22,76,
17591691,00000603,false,Rx,0,8,70,00,00,00,00,00,00,00,
17592271,00000583,false,Rx,0,8,10,61,6C,75,65,22,3A,30,
17592830,00000603,false,Rx,0,8,60,00,00,00,00,00,00,00,
17593374,00000583,false,Rx,0,8,00,2E,30,30,2C,22,69,73,
17593924,00000603,false,Rx,0,8,70,00,00,00,00,00,00,00,
17594471,00000583,false,Rx,0,8,10,70,61,72,61,6D,22,3A,
17595033,00000603,false,Rx,0,8,60,00,00,00,00,00,00,00,
17595571,00000583,false,Rx,0,8,00,74,72,75,65,2C,22,6D,
17596158,00000603,false,Rx,0,8,70,00,00,00,00,00,00,00,
17596701,00000583,false,Rx,0,8,10,69,6E,69,6D,75,6D,22,
17597159,00000603,false,Rx,0,8,60,00,00,00,00,00,00,00,
17597696,00000583,false,Rx,0,8,00,3A,30,2E,30,30,2C,22,
17598307,00000603,false,Rx,0,8,70,00,00,00,00,00,00,00,
17598850,00000583,false,Rx,0,8,10,6D,61,78,69,6D,75,6D,
17599432,00000603,false,Rx,0,8,60,00,00,00,00,00,00,00,
17599975,00000583,false,Rx,0,8,00,22,3A,31,2E,30,30,2C,
17600542,00000603,false,Rx,0,8,70,00,00,00,00,00,00,00,
17601105,00000583,false,Rx,0,8,10,22,64,65,66,61,75,6C,
17601652,00000603,false,Rx,0,8,60,00,00,00,00,00,00,00,
17602196,00000583,false,Rx,0,8,00,74,22,3A,30,2E,30,30,
17602739,00000603,false,Rx,0,8,70,00,00,00,00,00,00,00,
17603271,00000583,false,Rx,0,8,10,2C,22,63,61,74,65,67,
17603834,00000603,false,Rx,0,8,60,00,00,00,00,00,00,00,
17604375,00000583,false,Rx,0,8,00,6F,72,79,22,3A,22,47,
17604929,00000603,false,Rx,0,8,70,00,00,00,00,00,00,00,
17605471,00000583,false,Rx,0,8,10,65,6E,65,72,61,6C,20,
17606036,00000603,false,Rx,0,8,60,00,00,00,00,00,00,00,
17606571,00000583,false,Rx,0,8,00,53,65,74,75,70,22,2C,
17607167,00000603,false,Rx,0,8,70,00,00,00,00,00,00,00,
17607720,00000583,false,Rx,0,8,10,22,69,22,3A,35,7D,2C,
17608322,00000603,false,Rx,0,8,60,00,00,00,00,00,00,00,
17608867,00000583,false,Rx,0,8,00,0D,0A,20,20,20,22,56,
17609443,00000603,false,Rx,0,8,70,00,00,00,00,00,00,00,
17609986,00000583,false,Rx,0,8,10,65,68,69,63,6C,65,43,
17610558,00000603,false,Rx,0,8,60,00,00,00,00,00,00,00,
17611101,00000583,false,Rx,0,8,00,61,6E,22,3A,20,7B,22,
17611663,00000603,false,Rx,0,8,70,00,00,00,00,00,00,00,
17612275,00000583,false,Rx,0,8,10,75,6E,69,74,22,3A,22,
17612829,00000603,false,Rx,0,8,60,00,00,00,00,00,00,00,
17613369,00000583,false,Rx,0,8,00,30,3D,43,41,4E,31,2C,
17613909,00000603,false,Rx,0,8,70,00,00,00,00,00,00,00,
17614462,00000583,false,Rx,0,8,10,20,31,3D,43,41,4E,32,
17615049,00000603,false,Rx,0,8,60,00,00,00,00,00,00,00,
17615590,00000583,false,Rx,0,8,00,22,2C,22,69,64,22,3A,
17616134,00000603,false,Rx,0,8,70,00,00,00,00,00,00,00,
17616696,00000583,false,Rx,0,8,10,37,31,2C,22,76,61,6C,
17617425,00000603,false,Rx,0,8,60,00,00,00,00,00,00,00,
17617976,00000583,false,Rx,0,8,00,75,65,22,3A,31,2E,30,
17618582,00000603,false,Rx,0,8,70,00,00,00,00,00,00,00,
17619133,00000583,false,Rx,0,8,10,30,2C,22,69,73,70,61,
17619622,00000603,false,Rx,0,8,60,00,00,00,00,00,00,00,
17620171,00000583,false,Rx,0,8,00,72,61,6D,22,3A,74,72,
17620732,00000603,false,Rx,0,8,70,00,00,00,00,00,00,00,
17621264,00000583,false,Rx,0,8,10,75,65,2C,22,6D,69,6E,
17621975,00000603,false,Rx,0,8,60,00,00,00,00,00,00,00,
17622516,00000583,false,Rx,0,8,00,69,6D,75,6D,22,3A,30,
17623146,00000603,false,Rx,0,8,70,00,00,00,00,00,00,00,
17623690,00000583,false,Rx,0,8,10,2E,30,30,2C,22,6D,61,
17624273,00000603,false,Rx,0,8,60,00,00,00,00,00,00,00,
17624823,00000583,false,Rx,0,8,00,78,69,6D,75,6D,22,3A,
17625420,00000603,false,Rx,0,8,70,00,00,00,00,00,00,00,
17625972,00000583,false,Rx,0,8,10,31,2E,30,30,2C,22,64,
17626546,00000603,false,Rx,0,8,60,00,00,00,00,00,00,00,
17627098,00000583,false,Rx,0,8,00,65,66,61,75,6C,74,22,
17627681,00000603,false,Rx,0,8,70,00,00,00,00,00,00,00,
17628275,00000583,false,Rx,0,8,10,3A,31,2E,30,30,2C,22,
17628824,00000603,false,Rx,0,8,60,00,00,00,00,00,00,00,
17629370,00000583,false,Rx,0,8,00,63,61,74,65,67,6F,72,
17629955,00000603,false,Rx,0,8,70,00,00,00,00,00,00,00,
17630496,00000583,false,Rx,0,8,10,79,22,3A,22,47,65,6E,
17631014,00000603,false,Rx,0,8,60,00,00,00,00,00,00,00,
17631570,00000583,false,Rx,0,8,00,65,72,61,6C,20,53,65,
17632137,00000603,false,Rx,0,8,70,00,00,00,00,00,00,00,
17632696,00000583,false,Rx,0,8,10,74,75,70,22,2C,22,69,
17633413,00000603,false,Rx,0,8,60,00,00,00,00,00,00,00,
17633988,00000583,false,Rx,0,8,00,22,3A,36,7D,2C,0D,0A,
17634598,00000603,false,Rx,0,8,70,00,00,00,00,00,00,00,
17635155,00000583,false,Rx,0,8,10,20,20,20,22,53,68,75,
17635830,00000603,false,Rx,0,8,60,00,00,00,00,00,00,00,
17636377,00000583,false,Rx,0,8,00,6E,74,43,61,6E,22,3A,
17636949,00000603,false,Rx,0,8,70,00,00,00,00,00,00,00,
17637496,00000583,false,Rx,0,8,10,20,7B,22,75,6E,69,74,
17638070,00000603,false,Rx,0,8,60,00,00,00,00,00,00,00,
17638596,00000583,false,Rx,0,8,00,22,3A,22,30,3D,43,41,
17639177,00000603,false,Rx,0,8,70,00,00,00,00,00,00,00,
17639721,00000583,false,Rx,0,8,10,4E,31,2C,20,31,3D,43,
17640303,00000603,false,Rx,0,8,60,00,00,00,00,00,00,00,
17640854,00000583,false,Rx,0,8,00,41,4E,32,22,2C,22,69,
17641441,00000603,false,Rx,0,8,70,00,00,00,00,00,00,00,
17641994,00000583,false,Rx,0,8,10,64,22,3A,37,32,2C,22,
17642563,00000603,false,Rx,0,8,60,00,00,00,00,00,00,00,
17643112,00000583,false,Rx,0,8,00,76,61,6C,75,65,22,3A,
17643672,00000603,false,Rx,0,8,70,00,00,00,00,00,00,00,
17644277,00000583,false,Rx,0,8,10,30,2E,30,30,2C,22,69,
17644830,00000603,false,Rx,0,8,60,00,00,00,00,00,00,00,
17645372,00000583,false,Rx,0,8,00,73,70,61,72,61,6D,22,
17645924,00000603,false,Rx,0,8,70,00,00,00,00,00,00,00,
17646471,00000583,false,Rx,0,8,10,3A,74,72,75,65,2C,22,
17647106,00000603,false,Rx,0,8,60,00,00,00,00,00,00,00,
17647672,00000583,false,Rx,0,8,00,6D,69,6E,69,6D,75,6D,
17648270,00000603,false,Rx,0,8,70,00,00,00,00,00,00,00,
17648821,00000583,false,Rx,0,8,10,22,3A,30,2E,30,30,2C,
17649401,00000603,false,Rx,0,8,60,00,00,00,00,00,00,00,
17649952,00000583,false,Rx,0,8,00,22,6D,61,78,69,6D,75,
17650521,00000603,false,Rx,0,8,70,00,00,00,00,00,00,00,
17651074,00000583,false,Rx,0,8,10,6D,22,3A,31,2E,30,30,
17651665,00000603,false,Rx,0,8,60,00,00,00,00,00,00,00,
17652279,00000583,false,Rx,0,8,00,2C,22,64,65,66,61,75,
17652831,00000603,false,Rx,0,8,70,00,00,00,00,00,00,00,
17653372,00000583,false,Rx,0,8,10,6C,74,22,3A,30,2E,30,
17653916,00000603,false,Rx,0,8,60,00,00,00,00,00,00,00,
17654472,00000583,false,Rx,0,8,00,30,2C,22,63,61,74,65,
17655033,00000603,false,Rx,0,8,70,00,00,00,00,00,00,00,
17655572,00000583,false,Rx,0,8,10,67,6F,72,79,22,3A,22,
17656090,00000603,false,Rx,0,8,60,00,00,00,00,00,00,00,
17656586,00000583,false,Rx,0,8,00,47,65,6E,65,72,61,6C,
17656973,00000603,false,Rx,0,8,70,00,00,00,00,00,00,00,
17657511,00000583,false,Rx,0,8,10,20,53,65,74,75,70,22,
17657838,00000603,false,Rx,0,8,60,00,00,00,00,00,00,00,
17658387,00000583,false,Rx,0,8,00,2C,22,69,22,3A,37,7D,
17658720,00000603,false,Rx,0,8,70,00,00,00,00,00,00,00,
17659260,00000583,false,Rx,0,8,10,2C,0D,0A,20,20,20,22,
17659593,00000603,false,Rx,0,8,60,00,00,00,00,00,00,00,
17660134,00000583,false,Rx,0,8,00,4C,69,6D,43,61,6E,22,
17660461,00000603,false,Rx,0,8,70,00,00,00,00,00,00,00,
17661005,00000583,false,Rx,0,8,10,3A,20,7B,22,75,6E,69,
17661331,00000603,false,Rx,0,8,60,00,00,00,00,00,00,00,
17661896,00000583,false,Rx,0,8,00,74,22,3A,22,30,3D,43,
17662269,00000603,false,Rx,0,8,70,00,00,00,00,00,00,00,
17662810,00000583,false,Rx,0,8,10,41,4E,31,2C,20,31,3D,
17663163,00000603,false,Rx,0,8,60,00,00,00,00,00,00,00,
17663710,00000583,false,Rx,0,8,00,43,41,4E,32,22,2C,22,
17664073,00000603,false,Rx,0,8,70,00,00,00,00,00,00,00,
17664611,00000583,false,Rx,0,8,10,69,64,22,3A,37,33,2C,
17664943,00000603,false,Rx,0,8,60,00,00,00,00,00,00,00,
17665483,00000583,false,Rx,0,8,00,22,76,61,6C,75,65,22,
17665754,00000603,false,Rx,0,8,70,00,00,00,00,00,00,00,
17666308,00000583,false,Rx,0,8,10,3A,30,2E,30,30,2C,22,
17666573,00000603,false,Rx,0,8,60,00,00,00,00,00,00,00,
17667116,00000583,false,Rx,0,8,00,69,73,70,61,72,61,6D,
17667383,00000603,false,Rx,0,8,70,00,00,00,00,00,00,00,
17667930,00000583,false,Rx,0,8,10,22,3A,74,72,75,65,2C,
17668200,00000603,false,Rx,0,8,60,00,00,00,00,00,00,00,
17668738,00000583,false,Rx,0,8,00,22,6D,69,6E,69,6D,75,
17668999,00000603,false,Rx,0,8,70,00,00,00,00,00,00,00,
17669540,00000583,false,Rx,0,8,10,6D,22,3A,30,2E,30,30,
17669800,00000603,false,Rx,0,8,60,00,00,00,00,00,00,00,
17670358,00000583,false,Rx,0,8,00,2C,22,6D,61,78,69,6D,
17670626,00000603,false,Rx,0,8,70,00,00,00,00,00,00,00,
17671170,00000583,false,Rx,0,8,10,75,6D,22,3A,31,2E,30,
17671431,00000603,false,Rx,0,8,60,00,00,00,00,00,00,00,
17671973,00000583,false,Rx,0,8,00,30,2C,22,64,65,66,61,
17672268,00000603,false,Rx,0,8,70,00,00,00,00,00,00,00,
17672807,00000583,false,Rx,0,8,10,75,6C,74,22,3A,30,2E,
17673061,00000603,false,Rx,0,8,60,00,00,00,00,00,00,00,
17673605,00000583,false,Rx,0,8,00,30,30,2C,22,63,61,74,
17673847,00000603,false,Rx,0,8,70,00,00,00,00,00,00,00,
17674382,00000583,false,Rx,0,8,10,65,67,6F,72,79,22,3A,
17674611,00000603,false,Rx,0,8,60,00,00,00,00,00,00,00,
17675155,00000583,false,Rx,0,8,00,22,47,65,6E,65,72,61,
17675456,00000603,false,Rx,0,8,70,00,00,00,00,00,00,00,
17676005,00000583,false,Rx,0,8,10,6C,20,53,65,74,75,70,
17676362,00000603,false,Rx,0,8,60,00,00,00,00,00,00,00,
17676905,00000583,false,Rx,0,8,00,22,2C,22,69,22,3A,38,
17677308,00000603,false,Rx,0,8,70,00,00,00,00,00,00,00,
17677811,00000583,false,Rx,0,8,10,7D,2C,0D,0A,20,20,20,
17678208,00000603,false,Rx,0,8,60,00,00,00,00,00,00,00,
17678732,00000583,false,Rx,0,8,00,22,43,68,61,72,67,65,
17679086,00000603,false,Rx,0,8,70,00,00,00,00,00,00,00,
17679640,00000583,false,Rx,0,8,10,72,43,61,6E,22,3A,20,
17680083,00000603,false,Rx,0,8,60,00,00,00,00,00,00,00,
17680636,00000583,false,Rx,0,8,00,7B,22,75,6E,69,74,22,
17680944,00000603,false,Rx,0,8,70,00,00,00,00,00,00,00,
17681481,00000583,false,Rx,0,8,10,3A,22,30,3D,43,41,4E,
17681706,00000603,false,Rx,0,8,60,00,00,00,00,00,00,00,
17682256,00000583,false,Rx,0,8,00,31,2C,20,31,3D,43,41,
17682479,00000603,false,Rx,0,8,70,00,00,00,00,00,00,00,
17683047,00000583,false,Rx,0,8,10,4E,32,22,2C,22,69,64,
17683260,00000603,false,Rx,0,8,60,00,00,00,00,00,00,00,
17683804,00000583,false,Rx,0,8,00,22,3A,37,34,2C,22,76,
17684044,00000603,false,Rx,0,8,70,00,00,00,00,00,00,00,
17684585,00000583,false,Rx,0,8,10,61,6C,75,65,22,3A,31,
17684819,00000603,false,Rx,0,8,60,00,00,00,00,00,00,00,
17685355,00000583,false,Rx,0,8,00,2E,30,30,2C,22,69,73,
17685577,00000603,false,Rx,0,8,70,00,00,00,00,00,00,00,
17686120,00000583,false,Rx,0,8,10,70,61,72,61,6D,22,3A,
17686346,00000603,false,Rx,0,8,60,00,00,00,00,00,00,00,
17686890,00000583,false,Rx,0,8,00,74,72,75,65,2C,22,6D,
17687133,00000603,false,Rx,0,8,70,00,00,00,00,00,00,00,
17687680,00000583,false,Rx,0,8,10,69,6E,69,6D,75,6D,22,
17687850,00000603,false,Rx,0,8,60,00,00,00,00,00,00,00,
17688405,00000583,false,Rx,0,8,00,3A,30,2E,30,30,2C,22,
17688633,00000603,false,Rx,0,8,70,00,00,00,00,00,00,00,
17689180,00000583,false,Rx,0,8,10,6D,61,78,69,6D,75,6D,
17689411,00000603,false,Rx,0,8,60,00,00,00,00,00,00,00,
17689955,00000583,false,Rx,0,8,00,22,3A,31,2E,30,30,2C,
17690190,00000603,false,Rx,0,8,70,00,00,00,00,00,00,00,
17690730,00000583,false,Rx,0,8,10,22,64,65,66,61,75,6C,
17690959,00000603,false,Rx,0,8,60,00,00,00,00,00,00,00,
17691505,00000583,false,Rx,0,8,00,74,22,3A,31,2E,30,30,
17691670,00000603,false,Rx,0,8,70,00,00,00,00,00,00,00,
17692260,00000583,false,Rx,0,8,10,2C,22,63,61,74,65,67,
17692481,00000603,false,Rx,0,8,60,00,00,00,00,00,00,00,
17693027,00000583,false,Rx,0,8,00,6F,72,79,22,3A,22,47,
17693261,00000603,false,Rx,0,8,70,00,00,00,00,00,00,00,
17693804,00000583,false,Rx,0,8,10,65,6E,65,72,61,6C,20,
17694031,00000603,false,Rx,0,8,60,00,00,00,00,00,00,00,
17694579,00000583,false,Rx,0,8,00,53,65,74,75,70,22,2C,
17694795,00000603,false,Rx,0,8,70,00,00,00,00,00,00,00,
17695340,00000583,false,Rx,0,8,10,22,69,22,3A,39,7D,2C,
17695587,00000603,false,Rx,0,8,60,00,00,00,00,00,00,00,
17696125,00000583,false,Rx,0,8,00,0D,0A,20,20,20,22,42,
17696330,00000603,false,Rx,0,8,70,00,00,00,00,00,00,00,
17696869,00000583,false,Rx,0,8,10,4D,53,43,61,6E,22,3A,
17697128,00000603,false,Rx,0,8,60,00,00,00,00,00,00,00,
17697693,00000583,false,Rx,0,8,00,20,7B,22,75,6E,69,74,
17697939,00000603,false,Rx,0,8,70,00,00,00,00,00,00,00,
17698560,00000583,false,Rx,0,8,10,22,3A,22,30,3D,43,41,
17698793,00000603,false,Rx,0,8,60,00,00,00,00,00,00,00,
17699361,00000583,false,Rx,0,8,00,4E,31,2C,20,31,3D,43,
17699596,00000603,false,Rx,0,8,70,00,00,00,00,00,00,00,
17700128,00000583,false,Rx,0,8,10,41,4E,32,22,2C,22,69,
17700359,00000603,false,Rx,0,8,60,00,00,00,00,00,00,00,
17701207,00000583,false,Rx,0,8,00,64,22,3A,38,39,2C,22,
17701433,00000603,false,Rx,0,8,70,00,00,00,00,00,00,00,
17701932,00000583,false,Rx,0,8,10,76,61,6C,75,65,22,3A,
17702232,00000603,false,Rx,0,8,60,00,00,00,00,00,00,00,
17702892,00000583,false,Rx,0,8,00,31,2E,30,30,2C,22,69,
17703141,00000603,false,Rx,0,8,70,00,00,00,00,00,00,00,
17703815,00000583,false,Rx,0,8,10,73,70,61,72,61,6D,22,
17703984,00000603,false,Rx,0,8,60,00,00,00,00,00,00,00,
17704950,00000583,false,Rx,0,8,00,3A,74,72,75,65,2C,22,
17705353,00000603,false,Rx,0,8,70,00,00,00,00,00,00,00,
17706206,00000583,false,Rx,0,8,10,6D,69,6E,69,6D,75,6D,
17706513,00000603,false,Rx,0,8,60,00,00,00,00,00,00,00,
17707253,00000583,false,Rx,0,8,00,22,3A,30,2E,30,30,2C,
17707578,00000603,false,Rx,0,8,70,00,00,00,00,00,00,00,
17708281,00000583,false,Rx,0,8,10,22,6D,61,78,69,6D,75,
17708588,00000603,false,Rx,0,8,60,00,00,00,00,00,00,00,
17709274,00000583,false,Rx,0,8,00,6D,22,3A,31,2E,30,30,
17709580,00000603,false,Rx,0,8,70,00,00,00,00,00,00,00,
17710270,00000583,false,Rx,0,8,10,2C,22,64,65,66,61,75,
17710575,00000603,false,Rx,0,8,60,00,00,00,00,00,00,00,
17711270,00000583,false,Rx,0,8,00,6C,74,22,3A,31,2E,30,
17711575,00000603,false,Rx,0,8,70,00,00,00,00,00,00,00,
17712281,00000583,false,Rx,0,8,10,30,2C,22,63,61,74,65,
17712585,00000603,false,Rx,0,8,60,00,00,00,00,00,00,00,
17713270,00000583,false,Rx,0,8,00,67,6F,72,79,22,3A,22,
17713573,00000603,false,Rx,0,8,70,00,00,00,00,00,00,00,
17714270,00000583,false,Rx,0,8,10,47,65,6E,65,72,61,6C,
17714573,00000603,false,Rx,0,8,60,00,00,00,00,00,00,00,
17715261,00000583,false,Rx,0,8,00,20,53,65,74,75,70,22,
17715590,00000603,false,Rx,0,8,70,00,00,00,00,00,00,00,
17716258,00000583,false,Rx,0,8,10,2C,22,69,22,3A,31,30,
17716586,00000603,false,Rx,0,8,60,00,00,00,00,00,00,00,
17717257,00000583,false,Rx,0,8,00,7D,2C,0D,0A,20,20,20,
17717581,00000603,false,Rx,0,8,70,00,00,00,00,00,00,00,
17718260,00000583,false,Rx,0,8,10,22,4F,42,44,32,43,61,
17718578,00000603,false,Rx,0,8,60,00,00,00,00,00,00,00,
17719421,00000583,false,Rx,0,8,00,6E,22,3A,20,7B,22,75,
17719782,00000603,false,Rx,0,8,70,00,00,00,00,00,00,00,
17720332,00000583,false,Rx,0,8,10,6E,69,74,22,3A,22,30,
17720652,00000603,false,Rx,0,8,60,00,00,00,00,00,00,00,
17721507,00000583,false,Rx,0,8,00,3D,43,41,4E,31,2C,20,
17721865,00000603,false,Rx,0,8,70,00,00,00,00,00,00,00,
17722755,00000583,false,Rx,0,8,10,31,3D,43,41,4E,32,22,
17723122,00000603,false,Rx,0,8,60,00,00,00,00,00,00,00,
17723889,00000583,false,Rx,0,8,00,2C,22,69,64,22,3A,39,
17724322,00000603,false,Rx,0,8,70,00,00,00,00,00,00,00,
17725055,00000583,false,Rx,0,8,10,36,2C,22,76,61,6C,75,
17725392,00000603,false,Rx,0,8,60,00,00,00,00,00,00,00,
17726207,00000583,false,Rx,0,8,00,65,22,3A,30,2E,30,30,
17726521,00000603,false,Rx,0,8,70,00,00,00,00,00,00,00,
17727235,00000583,false,Rx,0,8,10,2C,22,69,73,70,61,72,
17727550,00000603,false,Rx,0,8,60,00,00,00,00,00,00,00,
17728257,00000583,false,Rx,0,8,00,61,6D,22,3A,74,72,75,
17728577,00000603,false,Rx,0,8,70,00,00,00,00,00,00,00,
17729249,00000583,false,Rx,0,8,10,65,2C,22,6D,69,6E,69,
17729572,00000603,false,Rx,0,8,60,00,00,00,00,00,00,00,
17730235,00000583,false,Rx,0,8,00,6D,75,6D,22,3A,30,2E,
17730564,00000603,false,Rx,0,8,70,00,00,00,00,00,00,00,
17731243,00000583,false,Rx,0,8,10,30,30,2C,22,6D,61,78,
17731568,00000603,false,Rx,0,8,60,00,00,00,00,00,00,00,
17732250,00000583,false,Rx,0,8,00,69,6D,75,6D,22,3A,31,
17732583,00000603,false,Rx,0,8,70,00,00,00,00,00,00,00,
17733248,00000583,false,Rx,0,8,10,2E,30,30,2C,22,64,65,
17733577,00000603,false,Rx,0,8,60,00,00,00,00,00,00,00,
17734265,00000583,false,Rx,0,8,00,66,61,75,6C,74,22,3A,
17734575,00000603,false,Rx,0,8,70,00,00,00,00,00,00,00,
17735256,00000583,false,Rx,0,8,10,30,2E,30,30,2C,22,63,
17735569,00000603,false,Rx,0,8,60,00,00,00,00,00,00,00,
17736251,00000583,false,Rx,0,8,00,61,74,65,67,6F,72,79,
17736560,00000603,false,Rx,0,8,70,00,00,00,00,00,00,00,
17737256,00000583,false,Rx,0,8,10,22,3A,22,47,65,6E,65,
17737565,00000603,false,Rx,0,8,60,00,00,00,00,00,00,00,
17738236,00000583,false,Rx,0,8,00,72,61,6C,20,53,65,74,
17738545,00000603,false,Rx,0,8,70,00,00,00,00,00,00,00,
17739249,00000583,false,Rx,0,8,10,75,70,22,2C,22,69,22,
17739562,00000603,false,Rx,0,8,60,00,00,00,00,00,00,00,
17740251,00000583,false,Rx,0,8,00,3A,31,31,7D,2C,0D,0A,
17740582,00000603,false,Rx,0,8,70,00,00,00,00,00,00,00,
17741247,00000583,false,Rx,0,8,10,20,20,20,22,43,61,6E,
17741582,00000603,false,Rx,0,8,60,00,00,00,00,00,00,00,
17742259,00000583,false,Rx,0,8,00,4D,61,70,43,61,6E,22,
17742573,00000603,false,Rx,0,8,70,00,00,00,00,00,00,00,
17743258,00000583,false,Rx,0,8,10,3A,20,7B,22,75,6E,69,
17743566,00000603,false,Rx,0,8,60,00,00,00,00,00,00,00,
17744298,00000583,false,Rx,0,8,00,74,22,3A,22,30,3D,43,
17744636,00000603,false,Rx,0,8,70,00,00,00,00,00,00,00,
17745251,00000583,false,Rx,0,8,10,41,4E,31,2C,20,31,3D,
17745574,00000603,false,Rx,0,8,60,00,00,00,00,00,00,00,
17746241,00000583,false,Rx,0,8,00,43,41,4E,32,22,2C,22,
17746581,00000603,false,Rx,0,8,70,00,00,00,00,00,00,00,
17747446,00000583,false,Rx,0,8,10,69,64,22,3A,39,37,2C,
17747814,00000603,false,Rx,0,8,60,00,00,00,00,00,00,00,
17748581,00000583,false,Rx,0,8,00,22,76,61,6C,75,65,22,
17748934,00000603,false,Rx,0,8,70,00,00,00,00,00,00,00,
17749673,00000583,false,Rx,0,8,10,3A,30,2E,30,30,2C,22,
17750034,00000603,false,Rx,0,8,60,00,00,00,00,00,00,00,
17750921,00000583,false,Rx,0,8,00,69,73,70,61,72,61,6D,
17751301,00000603,false,Rx,0,8,70,00,00,00,00,00,00,00,
17752179,00000583,false,Rx,0,8,10,22,3A,74,72,75,65,2C,
17752522,00000603,false,Rx,0,8,60,00,00,00,00,00,00,00,
17753258,00000583,false,Rx,0,8,00,22,6D,69,6E,69,6D,75,
17753584,00000603,false,Rx,0,8,70,00,00,00,00,00,00,00,
17754240,00000583,false,Rx,0,8,10,6D,22,3A,30,2E,30,30,
17754577,00000603,false,Rx,0,8,60,00,00,00,00,00,00,00,
17755256,00000583,false,Rx,0,8,00,2C,22,6D,61,78,69,6D,
17755623,00000603,false,Rx,0,8,70,00,00,00,00,00,00,00,
17756228,00000583,false,Rx,0,8,10,75,6D,22,3A,31,2E,30,
17756584,00000603,false,Rx,0,8,60,00,00,00,00,00,00,00,
17757223,00000583,false,Rx,0,8,00,30,2C,22,64,65,66,61,
17757588,00000603,false,Rx,0,8,70,00,00,00,00,00,00,00,
17758219,00000583,false,Rx,0,8,10,75,6C,74,22,3A,30,2E,
17758578,00000603,false,Rx,0,8,60,00,00,00,00,00,00,00,
17759410,00000583,false,Rx,0,8,00,30,30,2C,22,63,61,74,
17759806,00000603,false,Rx,0,8,70,00,00,00,00,00,00,00,
17760700,00000583,false,Rx,0,8,10,65,67,6F,72,79,22,3A,
17761049,00000603,false,Rx,0,8,60,00,00,00,00,00,00,00,
17761599,00000583,false,Rx,0,8,00,22,47,65,6E,65,72,61,
17761958,00000603,false,Rx,0,8,70,00,00,00,00,00,00,00,
17762845,00000583,false,Rx,0,8,10,6C,20,53,65,74,75,70,
17763229,00000603,false,Rx,0,8,60,00,00,00,00,00,00,00,
17764051,00000583,false,Rx,0,8,00,22,2C,22,69,22,3A,31,
17764461,00000603,false,Rx,0,8,70,00,00,00,00,00,00,00,
17765157,00000583,false,Rx,0,8,10,32,7D,2C,0D,0A,20,20,
17765554,00000603,false,Rx,0,8,60,00,00,00,00,00,00,00,
17766195,00000583,false,Rx,0,8,00,20,22,44,43,44,43,43,
17766615,00000603,false,Rx,0,8,70,00,00,00,00,00,00,00,
17767208,00000583,false,Rx,0,8,10,61,6E,22,3A,20,7B,22,
17767581,00000603,false,Rx,0,8,60,00,00,00,00,00,00,00,
17768194,00000583,false,Rx,0,8,00,75,6E,69,74,22,3A,22,
17768600,00000603,false,Rx,0,8,70,00,00,00,00,00,00,00,
17769199,00000583,false,Rx,0,8,10,30,3D,43,41,4E,31,2C,
17769599,00000603,false,Rx,0,8,60,00,00,00,00,00,00,00,
17770206,00000583,false,Rx,0,8,00,20,31,3D,43,41,4E,32,
17770621,00000603,false,Rx,0,8,70,00,00,00,00,00,00,00,
17771196,00000583,false,Rx,0,8,10,22,2C,22,69,64,22,3A,
17771614,00000603,false,Rx,0,8,60,00,00,00,00,00,00,00,
17772199,00000583,false,Rx,0,8,00,31,30,37,2C,22,76,61,
17772615,00000603,false,Rx,0,8,70,00,00,00,00,00,00,00,
17773209,00000583,false,Rx,0,8,10,6C,75,65,22,3A,31,2E,
17773666,00000603,false,Rx,0,8,60,00,00,00,00,00,00,00,
17774208,00000583,false,Rx,0,8,00,30,30,2C,22,69,73,70,
17774655,00000603,false,Rx,0,8,70,00,00,00,00,00,00,00,
17775200,00000583,false,Rx,0,8,10,61,72,61,6D,22,3A,74,
17775650,00000603,false,Rx,0,8,60,00,00,00,00,00,00,00,
17776182,00000583,false,Rx,0,8,00,72,75,65,2C,22,6D,69,
17776610,00000603,false,Rx,0,8,70,00,00,00,00,00,00,00,
17777174,00000583,false,Rx,0,8,10,6E,69,6D,75,6D,22,3A,
17777620,00000603,false,Rx,0,8,60,00,00,00,00,00,00,00,
17778161,00000583,false,Rx,0,8,00,30,2E,30,30,2C,22,6D,
17778616,00000603,false,Rx,0,8,70,00,00,00,00,00,00,00,
17779163,00000583,false,Rx,0,8,10,61,78,69,6D,75,6D,22,
17779616,00000603,false,Rx,0,8,60,00,00,00,00,00,00,00,
17780183,00000583,false,Rx,0,8,00,3A,31,2E,30,30,2C,22,
17780636,00000603,false,Rx,0,8,70,00,00,00,00,00,00,00,
17781175,00000583,false,Rx,0,8,10,64,65,66,61,75,6C,74,
17781628,00000603,false,Rx,0,8,60,00,00,00,00,00,00,00,
17782197,00000583,false,Rx,0,8,00,22,3A,31,2E,30,30,2C,
17782696,00000603,false,Rx,0,8,70,00,00,00,00,00,00,00,
17783597,00000583,false,Rx,0,8,10,22,63,61,74,65,67,6F,
17784180,00000603,false,Rx,0,8,60,00,00,00,00,00,00,00,
17784919,00000583,false,Rx,0,8,00,72,79,22,3A,22,47,65,
17785420,00000603,false,Rx,0,8,70,00,00,00,00,00,00,00,
17786132,00000583,false,Rx,0,8,10,6E,65,72,61,6C,20,53,
17786609,00000603,false,Rx,0,8,60,00,00,00,00,00,00,00,
17787172,00000583,false,Rx,0,8,00,65,74,75,70,22,2C,22,
17787681,00000603,false,Rx,0,8,70,00,00,00,00,00,00,00,
17788193,00000583,false,Rx,0,8,10,69,22,3A,31,33,7D,2C,
17788680,00000603,false,Rx,0,8,60,00,00,00,00,00,00,00,
17789234,00000583,false,Rx,0,8,00,0D,0A,20,20,20,22,47,
17789730,00000603,false,Rx,0,8,70,00,00,00,00,00,00,00,
17790394,00000583,false,Rx,0,8,10,65,61,72,4C,76,72,22,
17790936,00000603,false,Rx,0,8,60,00,00,00,00,00,00,00,
17791600,00000583,false,Rx,0,8,00,3A,20,7B,22,75,6E,69,
17792325,00000603,false,Rx,0,8,70,00,00,00,00,00,00,00,
17793102,00000583,false,Rx,0,8,10,74,22,3A,22,30,3D,4E,
17793696,00000603,false,Rx,0,8,60,00,00,00,00,00,00,00,
17794399,00000583,false,Rx,0,8,00,6F,6E,65,2C,20,31,3D,
17795071,00000603,false,Rx,0,8,70,00,00,00,00,00,00,00,
17795782,00000583,false,Rx,0,8,10,42,4D,57,5F,46,33,30,
17796422,00000603,false,Rx,0,8,60,00,00,00,00,00,00,00,
17796951,00000583,false,Rx,0,8,00,2C,20,32,3D,4A,4C,52,
17797594,00000603,false,Rx,0,8,70,00,00,00,00,00,00,00,
17798148,00000583,false,Rx,0,8,10,5F,47,31,2C,20,33,3D,
17798767,00000603,false,Rx,0,8,60,00,00,00,00,00,00,00,
17799397,00000583,false,Rx,0,8,00,4A,4C,52,5F,47,32,22,
17800094,00000603,false,Rx,0,8,70,00,00,00,00,00,00,00,
17800787,00000583,false,Rx,0,8,10,2C,22,69,64,22,3A,31,
17801498,00000603,false,Rx,0,8,60,00,00,00,00,00,00,00,
17802120,00000583,false,Rx,0,8,00,30,38,2C,22,76,61,6C,
17802809,00000603,false,Rx,0,8,70,00,00,00,00,00,00,00,
17803422,00000583,false,Rx,0,8,10,75,65,22,3A,30,2E,30,
17804210,00000603,false,Rx,0,8,60,00,00,00,00,00,00,00,
17804925,00000583,false,Rx,0,8,00,30,2C,22,69,73,70,61,
17805628,00000603,false,Rx,0,8,70,00,00,00,00,00,00,00,
17806172,00000583,false,Rx,0,8,10,72,61,6D,22,3A,74,72,
17806855,00000603,false,Rx,0,8,60,00,00,00,00,00,00,00,
17807446,00000583,false,Rx,0,8,00,75,65,2C,22,6D,69,6E,
17808135,00000603,false,Rx,0,8,70,00,00,00,00,00,00,00,
17808682,00000583,false,Rx,0,8,10,69,6D,75,6D,22,3A,30,
17809383,00000603,false,Rx,0,8,60,00,00,00,00,00,00,00,
17809969,00000583,false,Rx,0,8,00,2E,30,30,2C,22,6D,61,
17810481,00000603,false,Rx,0,8,70,00,00,00,00,00,00,00,
17811097,00000583,false,Rx,0,8,10,78,69,6D,75,6D,22,3A,
17811573,00000603,false,Rx,0,8,60,00,00,00,00,00,00,00,
17812123,00000583,false,Rx,0,8,00,33,2E,30,30,2C,22,64,
17812627,00000603,false,Rx,0,8,70,00,00,00,00,00,00,00,
17813218,00000583,false,Rx,0,8,10,65,66,61,75,6C,74,22,
17813690,00000603,false,Rx,0,8,60,00,00,00,00,00,00,00,
17814317,00000583,false,Rx,0,8,00,3A,30,2E,30,30,2C,22,
17814783,00000603,false,Rx,0,8,70,00,00,00,00,00,00,00,
17815364,00000583,false,Rx,0,8,10,63,61,74,65,67,6F,72,
17815826,00000603,false,Rx,0,8,60,00,00,00,00,00,00,00,
17816398,00000583,false,Rx,0,8,00,79,22,3A,22,47,65,6E,
17816870,00000603,false,Rx,0,8,70,00,00,00,00,00,00,00,
17817467,00000583,false,Rx,0,8,10,65,72,61,6C,20,53,65,
17817931,00000603,false,Rx,0,8,60,00,00,00,00,00,00,00,
17818523,00000583,false,Rx,0,8,00,74,75,70,22,2C,22,69,
17818984,00000603,false,Rx,0,8,70,00,00,00,00,00,00,00,
17819567,00000583,false,Rx,0,8,10,22,3A,31,34,7D,2C,0D,
17820061,00000603,false,Rx,0,8,60,00,00,00,00,00,00,00,
17820672,00000583,false,Rx,0,8,00,0A,20,20,20,22,4D,6F,
17821188,00000603,false,Rx,0,8,70,00,00,00,00,00,00,00,
17821792,00000583,false,Rx,0,8,10,74,41,63,74,69,76,65,
17822296,00000603,false,Rx,0,8,60,00,00,00,00,00,00,00,
17822893,00000583,false,Rx,0,8,00,22,3A,20,7B,22,75,6E,
17823399,00000603,false,Rx,0,8,70,00,00,00,00,00,00,00,
17823991,00000583,false,Rx,0,8,10,69,74,22,3A,22,30,3D,
17824522,00000603,false,Rx,0,8,60,00,00,00,00,00,00,00,
17825112,00000583,false,Rx,0,8,00,4D,67,31,61,6E,64,32,
17825593,00000603,false,Rx,0,8,70,00,00,00,00,00,00,00,
17826199,00000583,false,Rx,0,8,10,2C,20,31,3D,4D,67,31,
17826677,00000603,false,Rx,0,8,60,00,00,00,00,00,00,00,
17827318,00000583,false,Rx,0,8,00,2C,20,32,3D,4D,67,32,
17827782,00000603,false,Rx,0,8,70,00,00,00,00,00,00,00,
17828371,00000583,false,Rx,0,8,10,22,2C,22,69,64,22,3A,
17828837,00000603,false,Rx,0,8,60,00,00,00,00,00,00,00,
17829448,00000583,false,Rx,0,8,00,31,32,39,2C,22,76,61,
17829910,00000603,false,Rx,0,8,70,00,00,00,00,00,00,00,
17830502,00000583,false,Rx,0,8,10,6C,75,65,22,3A,30,2E,
17830974,00000603,false,Rx,0,8,60,00,00,00,00,00,00,00,
17831571,00000583,false,Rx,0,8,00,30,30,2C,22,69,73,70,
17832064,00000603,false,Rx,0,8,70,00,00,00,00,00,00,00,
17832651,00000583,false,Rx,0,8,10,61,72,61,6D,22,3A,74,
17833147,00000603,false,Rx,0,8,60,00,00,00,00,00,00,00,
17833747,00000583,false,Rx,0,8,00,72,75,65,2C,22,6D,69,
17834272,00000603,false,Rx,0,8,70,00,00,00,00,00,00,00,
17834866,00000583,false,Rx,0,8,10,6E,69,6D,75,6D,22,3A,
17835380,00000603,false,Rx,0,8,60,00,00,00,00,00,00,00,
17835976,00000583,false,Rx,0,8,00,30,2E,30,30,2C,22,6D,
17836460,00000603,false,Rx,0,8,70,00,00,00,00,00,00,00,
17837072,00000583,false,Rx,0,8,10,61,78,69,6D,75,6D,22,
17837530,00000603,false,Rx,0,8,60,00,00,00,00,00,00,00,
17838112,00000583,false,Rx,0,8,00,3A,32,2E,30,30,2C,22,
17838565,00000603,false,Rx,0,8,70,00,00,00,00,00,00,00,
17839123,00000583,false,Rx,0,8,10,64,65,66,61,75,6C,74,
17839578,00000603,false,Rx,0,8,60,00,00,00,00,00,00,00,
17840137,00000583,false,Rx,0,8,00,22,3A,30,2E,30,30,2C,
17840725,00000603,false,Rx,0,8,70,00,00,00,00,00,00,00,
17841262,00000583,false,Rx,0,8,10,22,63,61,74,65,67,6F,
17841792,00000603,false,Rx,0,8,60,00,00,00,00,00,00,00,
17842335,00000583,false,Rx,0,8,00,72,79,22,3A,22,47,65,
17842820,00000603,false,Rx,0,8,70,00,00,00,00,00,00,00,
17843366,00000583,false,Rx,0,8,10,6E,65,72,61,6C,20,53,
17843868,00000603,false,Rx,0,8,60,00,00,00,00,00,00,00,
17844413,00000583,false,Rx,0,8,00,65,74,75,70,22,2C,22,
17844893,00000603,false,Rx,0,8,70,00,00,00,00,00,00,00,
17845434,00000583,false,Rx,0,8,10,69,22,3A,31,35,7D,2C,
17846178,00000603,false,Rx,0,8,60,00,00,00,00,00,00,00,
17846716,00000583,false,Rx,0,8,00,0D,0A,20,20,20,22,70,
17847293,00000603,false,Rx,0,8,70,00,00,00,00,00,00,00,
17847844,00000583,false,Rx,0,8,10,6F,74,6D,69,6E,22,3A,
17848615,00000603,false,Rx,0,8,60,00,00,00,00,00,00,00,
17849159,00000583,false,Rx,0,8,00,20,7B,22,75,6E,69,74,
17849837,00000603,false,Rx,0,8,70,00,00,00,00,00,00,00,
17850400,00000583,false,Rx,0,8,10,22,3A,22,64,69,67,22,
17851675,00000603,false,Rx,0,8,60,00,00,00,00,00,00,00,
17852281,00000583,false,Rx,0,8,00,2C,22,69,64,22,3A,37,
17852945,00000603,false,Rx,0,8,70,00,00,00,00,00,00,00,
17853495,00000583,false,Rx,0,8,10,2C,22,76,61,6C,75,65,
17854106,00000603,false,Rx,0,8,60,00,00,00,00,00,00,00,
17854644,00000583,false,Rx,0,8,00,22,3A,30,2E,30,30,2C,
17855303,00000603,false,Rx,0,8,70,00,00,00,00,00,00,00,
17855844,00000583,false,Rx,0,8,10,22,69,73,70,61,72,61,
17856490,00000603,false,Rx,0,8,60,00,00,00,00,00,00,00,
17857036,00000583,false,Rx,0,8,00,6D,22,3A,74,72,75,65,
17857727,00000603,false,Rx,0,8,70,00,00,00,00,00,00,00,
17858269,00000583,false,Rx,0,8,10,2C,22,6D,69,6E,69,6D,
17858840,00000603,false,Rx,0,8,60,00,00,00,00,00,00,00,
17859400,00000583,false,Rx,0,8,00,75,6D,22,3A,30,2E,30,
17859969,00000603,false,Rx,0,8,70,00,00,00,00,00,00,00,
17860532,00000583,false,Rx,0,8,10,30,2C,22,6D,61,78,69,
17861111,00000603,false,Rx,0,8,60,00,00,00,00,00,00,00,
17861650,00000583,false,Rx,0,8,00,6D,75,6D,22,3A,34,30,
17862279,00000603,false,Rx,0,8,70,00,00,00,00,00,00,00,
17862820,00000583,false,Rx,0,8,10,39,35,2E,30,30,2C,22,
17863657,00000603,false,Rx,0,8,60,00,00,00,00,00,00,00,
17864265,00000583,false,Rx,0,8,00,64,65,66,61,75,6C,74,
17864794,00000603,false,Rx,0,8,70,00,00,00,00,00,00,00,
17865341,00000583,false,Rx,0,8,10,22,3A,30,2E,30,30,2C,
17865849,00000603,false,Rx,0,8,60,00,00,00,00,00,00,00,
17866387,00000583,false,Rx,0,8,00,22,63,61,74,65,67,6F,
17866882,00000603,false,Rx,0,8,70,00,00,00,00,00,00,00,
17867440,00000583,false,Rx,0,8,10,72,79,22,3A,22,54,68,
17867889,00000603,false,Rx,0,8,60,00,00,00,00,00,00,00,
17868442,00000583,false,Rx,0,8,00,72,6F,74,74,6C,65,22,
17869270,00000603,false,Rx,0,8,70,00,00,00,00,00,00,00,
17869811,00000583,false,Rx,0,8,10,2C,22,69,22,3A,31,36,
17870315,00000603,false,Rx,0,8,60,00,00,00,00,00,00,00,
17870859,00000583,false,Rx,0,8,00,7D,2C,0D,0A,20,20,20,
17871374,00000603,false,Rx,0,8,70,00,00,00,00,00,00,00,
17871914,00000583,false,Rx,0,8,10,22,70,6F,74,6D,61,78,
17872505,00000603,false,Rx,0,8,60,00,00,00,00,00,00,00,
17873058,00000583,false,Rx,0,8,00,22,3A,20,7B,22,75,6E,
17873644,00000603,false,Rx,0,8,70,00,00,00,00,00,00,00,
17874188,00000583,false,Rx,0,8,10,69,74,22,3A,22,64,69,
17874787,00000603,false,Rx,0,8,60,00,00,00,00,00,00,00,
17875338,00000583,false,Rx,0,8,00,67,22,2C,22,69,64,22,
17876010,00000603,false,Rx,0,8,70,00,00,00,00,00,00,00,
17876548,00000583,false,Rx,0,8,10,3A,38,2C,22,76,61,6C,
17877453,00000603,false,Rx,0,8,60,00,00,00,00,00,00,00,
17877998,00000583,false,Rx,0,8,00,75,65,22,3A,34,30,39,
17878599,00000603,false,Rx,0,8,70,00,00,00,00,00,00,00,
17879256,00000583,false,Rx,0,8,10,35,2E,30,30,2C,22,69,
17879821,00000603,false,Rx,0,8,60,00,00,00,00,00,00,00,
17880415,00000583,false,Rx,0,8,00,73,70,61,72,61,6D,22,
17880959,00000603,false,Rx,0,8,70,00,00,00,00,00,00,00,
17881548,00000583,false,Rx,0,8,10,3A,74,72,75,65,2C,22,
17882143,00000603,false,Rx,0,8,60,00,00,00,00,00,00,00,
17882663,00000583,false,Rx,0,8,00,6D,69,6E,69,6D,75,6D,
17883328,00000603,false,Rx,0,8,70,00,00,00,00,00,00,00,
17883912,00000583,false,Rx,0,8,10,22,3A,30,2E,30,30,2C,
17884515,00000603,false,Rx,0,8,60,00,00,00,00,00,00,00,
17885115,00000583,false,Rx,0,8,00,22,6D,61,78,69,6D,75,
17885653,00000603,false,Rx,0,8,70,00,00,00,00,00,00,00,
17886242,00000583,false,Rx,0,8,10,6D,22,3A,34,30,39,35,
17886783,00000603,false,Rx,0,8,60,00,00,00,00,00,00,00,
17887368,00000583,false,Rx,0,8,00,2E,30,30,2C,22,64,65,
17887906,00000603,false,Rx,0,8,70,00,00,00,00,00,00,00,
17888495,00000583,false,Rx,0,8,10,66,61,75,6C,74,22,3A,
17889038,00000603,false,Rx,0,8,60,00,00,00,00,00,00,00,
17889613,00000583,false,Rx,0,8,00,34,30,39,35,2E,30,30,
17890179,00000603,false,Rx,0,8,70,00,00,00,00,00,00,00,
17890769,00000583,false,Rx,0,8,10,2C,22,63,61,74,65,67,
17891282,00000603,false,Rx,0,8,60,00,00,00,00,00,00,00,
17891921,00000583,false,Rx,0,8,00,6F,72,79,22,3A,22,54,
17892467,00000603,false,Rx,0,8,70,00,00,00,00,00,00,00,
17893063,00000583,false,Rx,0,8,10,68,72,6F,74,74,6C,65,
17893599,00000603,false,Rx,0,8,60,00,00,00,00,00,00,00,
17894145,00000583,false,Rx,0,8,00,22,2C,22,69,22,3A,31,
17894682,00000603,false,Rx,0,8,70,00,00,00,00,00,00,00,
17895316,00000583,false,Rx,0,8,10,37,7D,2C,0D,0A,20,20,
17895857,00000603,false,Rx,0,8,60,00,00,00,00,00,00,00,
17896447,00000583,false,Rx,0,8,00,20,22,70,6F,74,32,6D,
17896963,00000603,false,Rx,0,8,70,00,00,00,00,00,00,00,
17897545,00000583,false,Rx,0,8,10,69,6E,22,3A,20,7B,22,
17898068,00000603,false,Rx,0,8,60,00,00,00,00,00,00,00,
17898668,00000583,false,Rx,0,8,00,75,6E,69,74,22,3A,22,
17899282,00000603,false,Rx,0,8,70,00,00,00,00,00,00,00,
17899877,00000583,false,Rx,0,8,10,64,69,67,22,2C,22,69,
17900447,00000603,false,Rx,0,8,60,00,00,00,00,00,00,00,
17901032,00000583,false,Rx,0,8,00,64,22,3A,39,2C,22,76,
17901559,00000603,false,Rx,0,8,70,00,00,00,00,00,00,00,
17902110,00000583,false,Rx,0,8,10,61,6C,75,65,22,3A,34,
17902653,00000603,false,Rx,0,8,60,00,00,00,00,00,00,00,
17903225,00000583,false,Rx,0,8,00,30,39,35,2E,30,30,2C,
17903780,00000603,false,Rx,0,8,70,00,00,00,00,00,00,00,
17904370,00000583,false,Rx,0,8,10,22,69,73,70,61,72,61,
17904918,00000603,false,Rx,0,8,60,00,00,00,00,00,00,00,
17905470,00000583,false,Rx,0,8,00,6D,22,3A,74,72,75,65,
17906007,00000603,false,Rx,0,8,70,00,00,00,00,00,00,00,
17906594,00000583,false,Rx,0,8,10,2C,22,6D,69,6E,69,6D,
17907158,00000603,false,Rx,0,8,60,00,00,00,00,00,00,00,
17907746,00000583,false,Rx,0,8,00,75,6D,22,3A,30,2E,30,
17908295,00000603,false,Rx,0,8,70,00,00,00,00,00,00,00,
17908879,00000583,false,Rx,0,8,10,30,2C,22,6D,61,78,69,
17909467,00000603,false,Rx,0,8,60,00,00,00,00,00,00,00,
17910088,00000583,false,Rx,0,8,00,6D,75,6D,22,3A,34,30,
17910634,00000603,false,Rx,0,8,70,00,00,00,00,00,00,00,
17911222,00000583,false,Rx,0,8,10,39,35,2E,30,30,2C,22,
17911759,00000603,false,Rx,0,8,60,00,00,00,00,00,00,00,
17912350,00000583,false,Rx,0,8,00,64,65,66,61,75,6C,74,
17912891,00000603,false,Rx,0,8,70,00,00,00,00,00,00,00,
17913474,00000583,false,Rx,0,8,10,22,3A,34,30,39,35,2E,
17913992,00000603,false,Rx,0,8,60,00,00,00,00,00,00,00,
17914573,00000583,false,Rx,0,8,00,30,30,2C,22,63,61,74,
17915125,00000603,false,Rx,0,8,70,00,00,00,00,00,00,00,
17915720,00000583,false,Rx,0,8,10,65,67,6F,72,79,22,3A,
17916206,00000603,false,Rx,0,8,60,00,00,00,00,00,00,00,
17916797,00000583,false,Rx,0,8,00,22,54,68,72,6F,74,74,
17917309,00000603,false,Rx,0,8,70,00,00,00,00,00,00,00,
17917894,00000583,false,Rx,0,8,10,6C,65,22,2C,22,69,22,
17918459,00000603,false,Rx,0,8,60,00,00,00,00,00,00,00,
17919056,00000583,false,Rx,0,8,00,3A,31,38,7D,2C,0D,0A,
17919586,00000603,false,Rx,0,8,70,00,00,00,00,00,00,00,
17920209,00000583,false,Rx,0,8,10,20,20,20,22,70,6F,74,
17920749,00000603,false,Rx,0,8,60,00,00,00,00,00,00,00,
17921321,00000583,false,Rx,0,8,00,32,6D,61,78,22,3A,20,
17921861,00000603,false,Rx,0,8,70,00,00,00,00,00,00,00,
17922441,00000583,false,Rx,0,8,10,7B,22,75,6E,69,74,22,
17922986,00000603,false,Rx,0,8,60,00,00,00,00,00,00,00,
17923580,00000583,false,Rx,0,8,00,3A,22,64,69,67,22,2C,
17924151,00000603,false,Rx,0,8,70,00,00,00,00,00,00,00,
17924754,00000583,false,Rx,0,8,10,22,69,64,22,3A,31,30,
17925309,00000603,false,Rx,0,8,60,00,00,00,00,00,00,00,
17925897,00000583,false,Rx,0,8,00,2C,22,76,61,6C,75,65,
17926468,00000603,false,Rx,0,8,70,00,00,00,00,00,00,00,
17927078,00000583,false,Rx,0,8,10,22,3A,34,30,39,35,2E,
17927609,00000603,false,Rx,0,8,60,00,00,00,00,00,00,00,
17928198,00000583,false,Rx,0,8,00,30,30,2C,22,69,73,70,
17928735,00000603,false,Rx,0,8,70,00,00,00,00,00,00,00,
17929323,00000583,false,Rx,0,8,10,61,72,61,6D,22,3A,74,
17929853,00000603,false,Rx,0,8,60,00,00,00,00,00,00,00,
17930431,00000583,false,Rx,0,8,00,72,75,65,2C,22,6D,69,
17930947,00000603,false,Rx,0,8,70,00,00,00,00,00,00,00,
17931520,00000583,false,Rx,0,8,10,6E,69,6D,75,6D,22,3A,
17932007,00000603,false,Rx,0,8,60,00,00,00,00,00,00,00,
17932604,00000583,false,Rx,0,8,00,30,2E,30,30,2C,22,6D,
17933123,00000603,false,Rx,0,8,70,00,00,00,00,00,00,00,
17933717,00000583,false,Rx,0,8,10,61,78,69,6D,75,6D,22,
17934283,00000603,false,Rx,0,8,60,00,00,00,00,00,00,00,
17934869,00000583,false,Rx,0,8,00,3A,34,30,39,35,2E,30,
17935388,00000603,false,Rx,0,8,70,00,00,00,00,00,00,00,
17935932,00000583,false,Rx,0,8,10,30,2C,22,64,65,66,61,
17936515,00000603,false,Rx,0,8,60,00,00,00,00,00,00,00,
17937069,00000583,false,Rx,0,8,00,75,6C,74,22,3A,34,30,
17937435,00000603,false,Rx,0,8,70,00,00,00,00,00,00,00,
17937982,00000583,false,Rx,0,8,10,39,35,2E,30,30,2C,22,
17938326,00000603,false,Rx,0,8,60,00,00,00,00,00,00,00,
17938903,00000583,false,Rx,0,8,00,63,61,74,65,67,6F,72,
17939373,00000603,false,Rx,0,8,70,00,00,00,00,00,00,00,
17939924,00000583,false,Rx,0,8,10,79,22,3A,22,54,68,72,
17940349,00000603,false,Rx,0,8,60,00,00,00,00,00,00,00,
17940911,00000583,false,Rx,0,8,00,6F,74,74,6C,65,22,2C,
17941407,00000603,false,Rx,0,8,70,00,00,00,00,00,00,00,
17942117,00000583,false,Rx,0,8,10,22,69,22,3A,31,39,7D,
17942532,00000603,false,Rx,0,8,60,00,00,00,00,00,00,00,
17943172,00000583,false,Rx,0,8,00,2C,0D,0A,20,20,20,22,
17943597,00000603,false,Rx,0,8,70,00,00,00,00,00,00,00,
17944137,00000583,false,Rx,0,8,10,72,65,67,65,6E,72,70,
17944562,00000603,false,Rx,0,8,60,00,00,00,00,00,00,00,
17945146,00000583,false,Rx,0,8,00,6D,22,3A,20,7B,22,75,
17945582,00000603,false,Rx,0,8,70,00,00,00,00,00,00,00,
17946149,00000583,false,Rx,0,8,10,6E,69,74,22,3A,22,72,
17946604,00000603,false,Rx,0,8,60,00,00,00,00,00,00,00,
17947149,00000583,false,Rx,0,8,00,70,6D,22,2C,22,69,64,
17947555,00000603,false,Rx,0,8,70,00,00,00,00,00,00,00,
17948154,00000583,false,Rx,0,8,10,22,3A,36,30,2C,22,76,
17948546,00000603,false,Rx,0,8,60,00,00,00,00,00,00,00,
17949144,00000583,false,Rx,0,8,00,61,6C,75,65,22,3A,31,
17949542,00000603,false,Rx,0,8,70,00,00,00,00,00,00,00,
17950134,00000583,false,Rx,0,8,10,35,30,30,2E,30,30,2C,
17950484,00000603,false,Rx,0,8,60,00,00,00,00,00,00,00,
17951148,00000583,false,Rx,0,8,00,22,69,73,70,61,72,61,
17951586,00000603,false,Rx,0,8,70,00,00,00,00,00,00,00,
17952170,00000583,false,Rx,0,8,10,6D,22,3A,74,72,75,65,
17952572,00000603,false,Rx,0,8,60,00,00,00,00,00,00,00,
17953164,00000583,false,Rx,0,8,00,2C,22,6D,69,6E,69,6D,
17953560,00000603,false,Rx,0,8,70,00,00,00,00,00,00,00,
17954167,00000583,false,Rx,0,8,10,75,6D,22,3A,31,30,30,
17954581,00000603,false,Rx,0,8,60,00,00,00,00,00,00,00,
17955177,00000583,false,Rx,0,8,00,2E,30,30,2C,22,6D,61,
17955576,00000603,false,Rx,0,8,70,00,00,00,00,00,00,00,
17956119,00000583,false,Rx,0,8,10,78,69,6D,75,6D,22,3A,
17956473,00000603,false,Rx,0,8,60,00,00,00,00,00,00,00,
17957160,00000583,false,Rx,0,8,00,31,30,30,30,30,2E,30,
17957561,00000603,false,Rx,0,8,70,00,00,00,00,00,00,00,
17958159,00000583,false,Rx,0,8,10,30,2C,22,64,65,66,61,
17958563,00000603,false,Rx,0,8,60,00,00,00,00,00,00,00,
17959423,00000583,false,Rx,0,8,00,75,6C,74,22,3A,31,35,
17959973,00000603,false,Rx,0,8,70,00,00,00,00,00,00,00,
17960826,00000583,false,Rx,0,8,10,30,30,2E,30,30,2C,22,
17961426,00000603,false,Rx,0,8,60,00,00,00,00,00,00,00,
17962199,00000583,false,Rx,0,8,00,63,61,74,65,67,6F,72,
17962727,00000603,false,Rx,0,8,70,00,00,00,00,00,00,00,
17963399,00000583,false,Rx,0,8,10,79,22,3A,22,54,68,72,
17963932,00000603,false,Rx,0,8,60,00,00,00,00,00,00,00,
17964792,00000583,false,Rx,0,8,00,6F,74,74,6C,65,22,2C,
17965340,00000603,false,Rx,0,8,70,00,00,00,00,00,00,00,
17966065,00000583,false,Rx,0,8,10,22,69,22,3A,32,30,7D,
17966568,00000603,false,Rx,0,8,60,00,00,00,00,00,00,00,
17967390,00000583,false,Rx,0,8,00,2C,0D,0A,20,20,20,22,
17967908,00000603,false,Rx,0,8,70,00,00,00,00,00,00,00,
17968698,00000583,false,Rx,0,8,10,72,65,67,65,6E,65,6E,
17969214,00000603,false,Rx,0,8,60,00,00,00,00,00,00,00,
17970026,00000583,false,Rx,0,8,00,64,72,70,6D,22,3A,20,
17970535,00000603,false,Rx,0,8,70,00,00,00,00,00,00,00,
17971164,00000583,false,Rx,0,8,10,7B,22,75,6E,69,74,22,
17971651,00000603,false,Rx,0,8,60,00,00,00,00,00,00,00,
17972233,00000583,false,Rx,0,8,00,3A,22,72,70,6D,22,2C,
17972714,00000603,false,Rx,0,8,70,00,00,00,00,00,00,00,
17973398,00000583,false,Rx,0,8,10,22,69,64,22,3A,31,32,
17973923,00000603,false,Rx,0,8,60,00,00,00,00,00,00,00,
17974622,00000583,false,Rx,0,8,00,36,2C,22,76,61,6C,75,
17975186,00000603,false,Rx,0,8,70,00,00,00,00,00,00,00,
17975919,00000583,false,Rx,0,8,10,65,22,3A,31,30,30,2E,
17976483,00000603,false,Rx,0,8,60,00,00,00,00,00,00,00,
17977111,00000583,false,Rx,0,8,00,30,30,2C,22,69,73,70,
17977609,00000603,false,Rx,0,8,70,00,00,00,00,00,00,00,
17978152,00000583,false,Rx,0,8,10,61,72,61,6D,22,3A,74,
17978665,00000603,false,Rx,0,8,60,00,00,00,00,00,00,00,
17979182,00000583,false,Rx,0,8,00,72,75,65,2C,22,6D,69,
17979709,00000603,false,Rx,0,8,70,00,00,00,00,00,00,00,
17980426,00000583,false,Rx,0,8,10,6E,69,6D,75,6D,22,3A,
17981074,00000603,false,Rx,0,8,60,00,00,00,00,00,00,00,
17981706,00000583,false,Rx,0,8,00,31,30,30,2E,30,30,2C,
17982373,00000603,false,Rx,0,8,70,00,00,00,00,00,00,00,
17983021,00000583,false,Rx,0,8,10,22,6D,61,78,69,6D,75,
17983677,00000603,false,Rx,0,8,60,00,00,00,00,00,00,00,
17984340,00000583,false,Rx,0,8,00,6D,22,3A,31,30,30,30,
17984996,00000603,false,Rx,0,8,70,00,00,00,00,00,00,00,
17985800,00000583,false,Rx,0,8,10,30,2E,30,30,2C,22,64,
17986472,00000603,false,Rx,0,8,60,00,00,00,00,00,00,00,
17987099,00000583,false,Rx,0,8,00,65,66,61,75,6C,74,22,
17987675,00000603,false,Rx,0,8,70,00,00,00,00,00,00,00,
17988194,00000583,false,Rx,0,8,10,3A,31,30,30,2E,30,30,
17988780,00000603,false,Rx,0,8,60,00,00,00,00,00,00,00,
17989618,00000583,false,Rx,0,8,00,2C,22,63,61,74,65,67,
17990471,00000603,false,Rx,0,8,70,00,00,00,00,00,00,00,
17991139,00000583,false,Rx,0,8,10,6F,72,79,22,3A,22,54,
17991826,00000603,false,Rx,0,8,60,00,00,00,00,00,00,00,
17992640,00000583,false,Rx,0,8,00,68,72,6F,74,74,6C,65,
17993489,00000603,false,Rx,0,8,70,00,00,00,00,00,00,00,
17994191,00000583,false,Rx,0,8,10,22,2C,22,69,22,3A,32,
17994959,00000603,false,Rx,0,8,60,00,00,00,00,00,00,00,
17995757,00000583,false,Rx,0,8,00,31,7D,2C,0D,0A,20,20,
17996572,00000603,false,Rx,0,8,70,00,00,00,00,00,00,00,
17997152,00000583,false,Rx,0,8,10,20,22,72,65,67,65,6E,
17997863,00000603,false,Rx,0,8,60,00,00,00,00,00,00,00,
17998526,00000583,false,Rx,0,8,00,6D,61,78,22,3A,20,7B,
17999378,00000603,false,Rx,0,8,70,00,00,00,00,00,00,00,
18000134,00000583,false,Rx,0,8,10,22,75,6E,69,74,22,3A,
18000825,00000603,false,Rx,0,8,60,00,00,00,00,00,00,00,
18001644,00000583,false,Rx,0,8,00,22,25,22,2C,22,69,64,
18002487,00000603,false,Rx,0,8,70,00,00,00,00,00,00,00,
18003286,00000583,false,Rx,0,8,10,22,3A,36,31,2C,22,76,
18004135,00000603,false,Rx,0,8,60,00,00,00,00,00,00,00,
18004823,00000583,false,Rx,0,8,00,61,6C,75,65,22,3A,2D,
18005546,00000603,false,Rx,0,8,70,00,00,00,00,00,00,00,
18006146,00000583,false,Rx,0,8,10,31,30,2E,30,30,2C,22,
18006788,00000603,false,Rx,0,8,60,00,00,00,00,00,00,00,
18007473,00000583,false,Rx,0,8,00,69,73,70,61,72,61,6D,
18008340,00000603,false,Rx,0,8,70,00,00,00,00,00,00,00,
18009116,00000583,false,Rx,0,8,10,22,3A,74,72,75,65,2C,
18009815,00000603,false,Rx,0,8,60,00,00,00,00,00,00,00,
18010503,00000583,false,Rx,0,8,00,22,6D,69,6E,69,6D,75,
18011371,00000603,false,Rx,0,8,70,00,00,00,00,00,00,00,
18012103,00000583,false,Rx,0,8,10,6D,22,3A,2D,33,30,2E,
18012808,00000603,false,Rx,0,8,60,00,00,00,00,00,00,00,
18013487,00000583,false,Rx,0,8,00,30,30,2C,22,6D,61,78,
18014418,00000603,false,Rx,0,8,70,00,00,00,00,00,00,00,
18015062,00000583,false,Rx,0,8,10,69,6D,75,6D,22,3A,30,
18015771,00000603,false,Rx,0,8,60,00,00,00,00,00,00,00,
18016435,00000583,false,Rx,0,8,00,2E,30,30,2C,22,64,65,
18017423,00000603,false,Rx,0,8,70,00,00,00,00,00,00,00,
18017987,00000583,false,Rx,0,8,10,66,61,75,6C,74,22,3A,
18018681,00000603,false,Rx,0,8,60,00,00,00,00,00,00,00,
18019221,00000583,false,Rx,0,8,00,2D,31,30,2E,30,30,2C,
18019798,00000603,false,Rx,0,8,70,00,00,00,00,00,00,00,
18020440,00000583,false,Rx,0,8,10,22,63,61,74,65,67,6F,
18021328,00000603,false,Rx,0,8,60,00,00,00,00,00,00,00,
18022143,00000583,false,Rx,0,8,00,72,79,22,3A,22,54,68,
18022832,00000603,false,Rx,0,8,70,00,00,00,00,00,00,00,
18023491,00000583,false,Rx,0,8,10,72,6F,74,74,6C,65,22,
18024377,00000603,false,Rx,0,8,60,00,00,00,00,00,00,00,
18025117,00000583,false,Rx,0,8,00,2C,22,69,22,3A,32,32,
18025817,00000603,false,Rx,0,8,70,00,00,00,00,00,00,00,
18026515,00000583,false,Rx,0,8,10,7D,2C,0D,0A,20,20,20,
18027482,00000603,false,Rx,0,8,60,00,00,00,00,00,00,00,
18028142,00000583,false,Rx,0,8,00,22,72,65,67,65,6E,42,
18028861,00000603,false,Rx,0,8,70,00,00,00,00,00,00,00,
18029563,00000583,false,Rx,0,8,10,72,61,6B,65,22,3A,20,
18030543,00000603,false,Rx,0,8,60,00,00,00,00,00,00,00,
18031161,00000583,false,Rx,0,8,00,7B,22,75,6E,69,74,22,
18031864,00000603,false,Rx,0,8,70,00,00,00,00,00,00,00,
18032568,00000583,false,Rx,0,8,10,3A,22,25,22,2C,22,69,
18033490,00000603,false,Rx,0,8,60,00,00,00,00,00,00,00,
18034141,00000583,false,Rx,0,8,00,64,22,3A,31,32,32,2C,
18034815,00000603,false,Rx,0,8,70,00,00,00,00,00,00,00,
18035623,00000583,false,Rx,0,8,10,22,76,61,6C,75,65,22,
18036537,00000603,false,Rx,0,8,60,00,00,00,00,00,00,00,
18037175,00000583,false,Rx,0,8,00,3A,2D,31,30,2E,30,30,
18037881,00000603,false,Rx,0,8,70,00,00,00,00,00,00,00,
18038682,00000583,false,Rx,0,8,10,2C,22,69,73,70,61,72,
18039568,00000603,false,Rx,0,8,60,00,00,00,00,00,00,00,
18040154,00000583,false,Rx,0,8,00,61,6D,22,3A,74,72,75,
18040849,00000603,false,Rx,0,8,70,00,00,00,00,00,00,00,
18041483,00000583,false,Rx,0,8,10,65,2C,22,6D,69,6E,69,
18042352,00000603,false,Rx,0,8,60,00,00,00,00,00,00,00,
18042941,00000583,false,Rx,0,8,00,6D,75,6D,22,3A,2D,33,
18043621,00000603,false,Rx,0,8,70,00,00,00,00,00,00,00,
18044130,00000583,false,Rx,0,8,10,30,2E,30,30,2C,22,6D,
18044801,00000603,false,Rx,0,8,60,00,00,00,00,00,00,00,
18045444,00000583,false,Rx,0,8,00,61,78,69,6D,75,6D,22,
18046388,00000603,false,Rx,0,8,70,00,00,00,00,00,00,00,
18047133,00000583,false,Rx,0,8,10,3A,30,2E,30,30,2C,22,
18047865,00000603,false,Rx,0,8,60,00,00,00,00,00,00,00,
18048516,00000583,false,Rx,0,8,00,64,65,66,61,75,6C,74,
18049431,00000603,false,Rx,0,8,70,00,00,00,00,00,00,00,
18050014,00000583,false,Rx,0,8,10,22,3A,2D,31,30,2E,30,
18050676,00000603,false,Rx,0,8,60,00,00,00,00,00,00,00,
18051252,00000583,false,Rx,0,8,00,30,2C,22,63,61,74,65,
18051901,00000603,false,Rx,0,8,70,00,00,00,00,00,00,00,
18052652,00000583,false,Rx,0,8,10,67,6F,72,79,22,3A,22,
18053578,00000603,false,Rx,0,8,60,00,00,00,00,00,00,00,
18054198,00000583,false,Rx,0,8,00,54,68,72,6F,74,74,6C,
18054895,00000603,false,Rx,0,8,70,00,00,00,00,00,00,00,
18055651,00000583,false,Rx,0,8,10,65,22,2C,22,69,22,3A,
18056325,00000603,false,Rx,0,8,60,00,00,00,00,00,00,00,
18056965,00000583,false,Rx,0,8,00,32,33,7D,2C,0D,0A,20,
18057636,00000603,false,Rx,0,8,70,00,00,00,00,00,00,00,
18058147,00000583,false,Rx,0,8,10,20,20,22,72,65,67,65,
18059092,00000603,false,Rx,0,8,60,00,00,00,00,00,00,00,
18059613,00000583,false,Rx,0,8,00,6E,72,61,6D,70,22,3A,
18060313,00000603,false,Rx,0,8,70,00,00,00,00,00,00,00,
18060853,00000583,false,Rx,0,8,10,20,7B,22,75,6E,69,74,
18061519,00000603,false,Rx,0,8,60,00,00,00,00,00,00,00,
18062073,00000583,false,Rx,0,8,00,22,3A,22,25,2F,31,30,
18062629,00000603,false,Rx,0,8,70,00,00,00,00,00,00,00,
18063169,00000583,false,Rx,0,8,10,6D,73,22,2C,22,69,64,
18063798,00000603,false,Rx,0,8,60,00,00,00,00,00,00,00,
18064340,00000583,false,Rx,0,8,00,22,3A,36,38,2C,22,76,
18064948,00000603,false,Rx,0,8,70,00,00,00,00,00,00,00,
18065496,00000583,false,Rx,0,8,10,61,6C,75,65,22,3A,31,
18066139,00000603,false,Rx,0,8,60,00,00,00,00,00,00,00,
18066695,00000583,false,Rx,0,8,00,30,30,2E,30,30,2C,22,
18067362,00000603,false,Rx,0,8,70,00,00,00,00,00,00,00,
18067905,00000583,false,Rx,0,8,10,69,73,70,61,72,61,6D,
18068525,00000603,false,Rx,0,8,60,00,00,00,00,00,00,00,
18069067,00000583,false,Rx,0,8,00,22,3A,74,72,75,65,2C,
18069555,00000603,false,Rx,0,8,70,00,00,00,00,00,00,00,
18070098,00000583,false,Rx,0,8,10,22,6D,69,6E,69,6D,75,
18070587,00000603,false,Rx,0,8,60,00,00,00,00,00,00,00,
18071129,00000583,false,Rx,0,8,00,6D,22,3A,30,2E,30,39,
18071663,00000603,false,Rx,0,8,70,00,00,00,00,00,00,00,
18072268,00000583,false,Rx,0,8,10,2C,22,6D,61,78,69,6D,
18072801,00000603,false,Rx,0,8,60,00,00,00,00,00,00,00,
18073341,00000583,false,Rx,0,8,00,75,6D,22,3A,31,30,30,
18073873,00000603,false,Rx,0,8,70,00,00,00,00,00,00,00,
18074415,00000583,false,Rx,0,8,10,2E,30,30,2C,22,64,65,
18074941,00000603,false,Rx,0,8,60,00,00,00,00,00,00,00,
18075491,00000583,false,Rx,0,8,00,66,61,75,6C,74,22,3A,
18076043,00000603,false,Rx,0,8,70,00,00,00,00,00,00,00,
18076571,00000583,false,Rx,0,8,10,31,30,30,2E,30,30,2C,
18077164,00000603,false,Rx,0,8,60,00,00,00,00,00,00,00,
18077716,00000583,false,Rx,0,8,00,22,63,61,74,65,67,6F,
18078274,00000603,false,Rx,0,8,70,00,00,00,00,00,00,00,
18078816,00000583,false,Rx,0,8,10,72,79,22,3A,22,54,68,
18079376,00000603,false,Rx,0,8,60,00,00,00,00,00,00,00,
18079917,00000583,false,Rx,0,8,00,72,6F,74,74,6C,65,22,
18080464,00000603,false,Rx,0,8,70,00,00,00,00,00,00,00,
18081004,00000583,false,Rx,0,8,10,2C,22,69,22,3A,32,34,
18081555,00000603,false,Rx,0,8,60,00,00,00,00,00,00,00,
18082122,00000583,false,Rx,0,8,00,7D,2C,0D,0A,20,20,20,
18082655,00000603,false,Rx,0,8,70,00,00,00,00,00,00,00,
18083266,00000583,false,Rx,0,8,10,22,70,6F,74,6D,6F,64,
18083798,00000603,false,Rx,0,8,60,00,00,00,00,00,00,00,
18084348,00000583,false,Rx,0,8,00,65,22,3A,20,7B,22,75,
18084875,00000603,false,Rx,0,8,70,00,00,00,00,00,00,00,
18085416,00000583,false,Rx,0,8,10,6E,69,74,22,3A,22,30,
18085955,00000603,false,Rx,0,8,60,00,00,00,00,00,00,00,
18086491,00000583,false,Rx,0,8,00,3D,53,69,6E,67,6C,65,
18087063,00000603,false,Rx,0,8,70,00,00,00,00,00,00,00,
18087593,00000583,false,Rx,0,8,10,43,68,61,6E,6E,65,6C,
18088180,00000603,false,Rx,0,8,60,00,00,00,00,00,00,00,
18088716,00000583,false,Rx,0,8,00,2C,20,31,3D,44,75,61,
18089281,00000603,false,Rx,0,8,70,00,00,00,00,00,00,00,
18089822,00000583,false,Rx,0,8,10,6C,43,68,61,6E,6E,65,
18090381,00000603,false,Rx,0,8,60,00,00,00,00,00,00,00,
18090923,00000583,false,Rx,0,8,00,6C,22,2C,22,69,64,22,
18091471,00000603,false,Rx,0,8,70,00,00,00,00,00,00,00,
18092013,00000583,false,Rx,0,8,10,3A,31,31,2C,22,76,61,
18092598,00000603,false,Rx,0,8,60,00,00,00,00,00,00,00,
18093138,00000583,false,Rx,0,8,00,6C,75,65,22,3A,30,2E,
18093671,00000603,false,Rx,0,8,70,00,00,00,00,00,00,00,
18094266,00000583,false,Rx,0,8,10,30,30,2C,22,69,73,70,
18094802,00000603,false,Rx,0,8,60,00,00,00,00,00,00,00,
18095341,00000583,false,Rx,0,8,00,61,72,61,6D,22,3A,74,
18095887,00000603,false,Rx,0,8,70,00,00,00,00,00,00,00,
18096491,00000583,false,Rx,0,8,10,72,75,65,2C,22,6D,69,
18097047,00000603,false,Rx,0,8,60,00,00,00,00,00,00,00,
18097566,00000583,false,Rx,0,8,00,6E,69,6D,75,6D,22,3A,
18098158,00000603,false,Rx,0,8,70,00,00,00,00,00,00,00,
18098691,00000583,false,Rx,0,8,10,30,2E,30,30,2C,22,6D,
18099322,00000603,false,Rx,0,8,60,00,00,00,00,00,00,00,
18099863,00000583,false,Rx,0,8,00,61,78,69,6D,75,6D,22,
18100418,00000603,false,Rx,0,8,70,00,00,00,00,00,00,00,
18100963,00000583,false,Rx,0,8,10,3A,31,2E,30,30,2C,22,
18101515,00000603,false,Rx,0,8,60,00,00,00,00,00,00,00,
18102054,00000583,false,Rx,0,8,00,64,65,66,61,75,6C,74,
18102561,00000603,false,Rx,0,8,70,00,00,00,00,00,00,00,
18103103,00000583,false,Rx,0,8,10,22,3A,30,2E,30,30,2C,
18103593,00000603,false,Rx,0,8,60,00,00,00,00,00,00,00,
18104138,00000583,false,Rx,0,8,00,22,63,61,74,65,67,6F,
18104675,00000603,false,Rx,0,8,70,00,00,00,00,00,00,00,
18105266,00000583,false,Rx,0,8,10,72,79,22,3A,22,54,68,
18105811,00000603,false,Rx,0,8,60,00,00,00,00,00,00,00,
18106341,00000583,false,Rx,0,8,00,72,6F,74,74,6C,65,22,
18106872,00000603,false,Rx,0,8,70,00,00,00,00,00,00,00,
18107413,00000583,false,Rx,0,8,10,2C,22,69,22,3A,32,35,
18107937,00000603,false,Rx,0,8,60,00,00,00,00,00,00,00,
18108492,00000583,false,Rx,0,8,00,7D,2C,0D,0A,20,20,20,
18109019,00000603,false,Rx,0,8,70,00,00,00,00,00,00,00,
18109570,00000583,false,Rx,0,8,10,22,64,69,72,6D,6F,64,
18110155,00000603,false,Rx,0,8,60,00,00,00,00,00,00,00,
18110707,00000583,false,Rx,0,8,00,65,22,3A,20,7B,22,75,
18111329,00000603,false,Rx,0,8,70,00,00,00,00,00,00,00,
18111872,00000583,false,Rx,0,8,10,6E,69,74,22,3A,22,30,
18112454,00000603,false,Rx,0,8,60,00,00,00,00,00,00,00,
18112995,00000583,false,Rx,0,8,00,3D,42,75,74,74,6F,6E,
18113613,00000603,false,Rx,0,8,70,00,00,00,00,00,00,00,
18114157,00000583,false,Rx,0,8,10,2C,20,31,3D,53,77,69,
18114800,00000603,false,Rx,0,8,60,00,00,00,00,00,00,00,
18115349,00000583,false,Rx,0,8,00,74,63,68,2C,20,32,3D,
18116016,00000603,false,Rx,0,8,70,00,00,00,00,00,00,00,
18116550,00000583,false,Rx,0,8,10,42,75,74,74,6F,6E,52,
18117141,00000603,false,Rx,0,8,60,00,00,00,00,00,00,00,
18117669,00000583,false,Rx,0,8,00,65,76,65,72,73,65,64,
18118181,00000603,false,Rx,0,8,70,00,00,00,00,00,00,00,
18118715,00000583,false,Rx,0,8,10,2C,20,33,3D,53,77,69,
18119193,00000603,false,Rx,0,8,60,00,00,00,00,00,00,00,
18119745,00000583,false,Rx,0,8,00,74,63,68,52,65,76,65,
18120463,00000603,false,Rx,0,8,70,00,00,00,00,00,00,00,
18120910,00000583,false,Rx,0,8,10,72,73,65,64,2C,20,34,
18121514,00000603,false,Rx,0,8,60,00,00,00,00,00,00,00,
18122110,00000583,false,Rx,0,8,00,3D,44,65,66,61,75,6C,
18122679,00000603,false,Rx,0,8,70,00,00,00,00,00,00,00,
18123219,00000583,false,Rx,0,8,10,74,46,6F,72,77,61,72,
18123766,00000603,false,Rx,0,8,60,00,00,00,00,00,00,00,
18124330,00000583,false,Rx,0,8,00,64,22,2C,22,69,64,22,
18124873,00000603,false,Rx,0,8,70,00,00,00,00,00,00,00,
18125421,00000583,false,Rx,0,8,10,3A,31,32,2C,22,76,61,
18125961,00000603,false,Rx,0,8,60,00,00,00,00,00,00,00,
18126517,00000583,false,Rx,0,8,00,6C,75,65,22,3A,31,2E,
18127053,00000603,false,Rx,0,8,70,00,00,00,00,00,00,00,
18127598,00000583,false,Rx,0,8,10,30,30,2C,22,69,73,70,
18128150,00000603,false,Rx,0,8,60,00,00,00,00,00,00,00,
18128692,00000583,false,Rx,0,8,00,61,72,61,6D,22,3A,74,
18129254,00000603,false,Rx,0,8,70,00,00,00,00,00,00,00,
18129809,00000583,false,Rx,0,8,10,72,75,65,2C,22,6D,69,
18130400,00000603,false,Rx,0,8,60,00,00,00,00,00,00,00,
18130944,00000583,false,Rx,0,8,00,6E,69,6D,75,6D,22,3A,
18131515,00000603,false,Rx,0,8,70,00,00,00,00,00,00,00,
18132103,00000583,false,Rx,0,8,10,30,2E,30,30,2C,22,6D,
18132646,00000603,false,Rx,0,8,60,00,00,00,00,00,00,00,
18133205,00000583,false,Rx,0,8,00,61,78,69,6D,75,6D,22,
18133749,00000603,false,Rx,0,8,70,00,00,00,00,00,00,00,
18134325,00000583,false,Rx,0,8,10,3A,34,2E,30,30,2C,22,
18134864,00000603,false,Rx,0,8,60,00,00,00,00,00,00,00,
18135400,00000583,false,Rx,0,8,00,64,65,66,61,75,6C,74,
18135935,00000603,false,Rx,0,8,70,00,00,00,00,00,00,00,
18136473,00000583,false,Rx,0,8,10,22,3A,31,2E,30,30,2C,
18137018,00000603,false,Rx,0,8,60,00,00,00,00,00,00,00,
18137548,00000583,false,Rx,0,8,00,22,63,61,74,65,67,6F,
18138071,00000603,false,Rx,0,8,70,00,00,00,00,00,00,00,
18138621,00000583,false,Rx,0,8,10,72,79,22,3A,22,54,68,
18139190,00000603,false,Rx,0,8,60,00,00,00,00,00,00,00,
18139723,00000583,false,Rx,0,8,00,72,6F,74,74,6C,65,22,
18140332,00000603,false,Rx,0,8,70,00,00,00,00,00,00,00,
18140881,00000583,false,Rx,0,8,10,2C,22,69,22,3A,32,36,
18141462,00000603,false,Rx,0,8,60,00,00,00,00,00,00,00,
18142029,00000583,false,Rx,0,8,00,7D,2C,0D,0A,20,20,20,
18142566,00000603,false,Rx,0,8,70,00,00,00,00,00,00,00,
18143100,00000583,false,Rx,0,8,10,22,72,65,76,65,72,73,
18143659,00000603,false,Rx,0,8,60,00,00,00,00,00,00,00,
18144153,00000583,false,Rx,0,8,00,65,6D,6F,74,6F,72,22,
18144683,00000603,false,Rx,0,8,70,00,00,00,00,00,00,00,
18145225,00000583,false,Rx,0,8,10,3A,20,7B,22,75,6E,69,
18145765,00000603,false,Rx,0,8,60,00,00,00,00,00,00,00,
18146325,00000583,false,Rx,0,8,00,74,22,3A,22,30,3D,4F,
18146858,00000603,false,Rx,0,8,70,00,00,00,00,00,00,00,
18147357,00000583,false,Rx,0,8,10,66,66,2C,20,31,3D,4F,
18147959,00000603,false,Rx,0,8,60,00,00,00,00,00,00,00,
18148553,00000583,false,Rx,0,8,00,6E,2C,20,32,3D,6E,61,
18149145,00000603,false,Rx,0,8,70,00,00,00,00,00,00,00,
18149726,00000583,false,Rx,0,8,10,22,2C,22,69,64,22,3A,
18150227,00000603,false,Rx,0,8,60,00,00,00,00,00,00,00,
18150827,00000583,false,Rx,0,8,00,31,32,37,2C,22,76,61,
18151389,00000603,false,Rx,0,8,70,00,00,00,00,00,00,00,
18151978,00000583,false,Rx,0,8,10,6C,75,65,22,3A,30,2E,
18152533,00000603,false,Rx,0,8,60,00,00,00,00,00,00,00,
18153126,00000583,false,Rx,0,8,00,30,30,2C,22,69,73,70,
18153662,00000603,false,Rx,0,8,70,00,00,00,00,00,00,00,
18154250,00000583,false,Rx,0,8,10,61,72,61,6D,22,3A,74,
18154788,00000603,false,Rx,0,8,60,00,00,00,00,00,00,00,
18155375,00000583,false,Rx,0,8,00,72,75,65,2C,22,6D,69,
18155905,00000603,false,Rx,0,8,70,00,00,00,00,00,00,00,
18156505,00000583,false,Rx,0,8,10,6E,69,6D,75,6D,22,3A,
18157044,00000603,false,Rx,0,8,60,00,00,00,00,00,00,00,
18157626,00000583,false,Rx,0,8,00,30,2E,30,30,2C,22,6D,
18158194,00000603,false,Rx,0,8,70,00,00,00,00,00,00,00,
18158795,00000583,false,Rx,0,8,10,61,78,69,6D,75,6D,22,
18159305,00000603,false,Rx,0,8,60,00,00,00,00,00,00,00,
18159898,00000583,false,Rx,0,8,00,3A,31,2E,30,30,2C,22,
18160452,00000603,false,Rx,0,8,70,00,00,00,00,00,00,00,
18161046,00000583,false,Rx,0,8,10,64,65,66,61,75,6C,74,
18161578,00000603,false,Rx,0,8,60,00,00,00,00,00,00,00,
18162126,00000583,false,Rx,0,8,00,22,3A,30,2E,30,30,2C,
18162655,00000603,false,Rx,0,8,70,00,00,00,00,00,00,00,
18163200,00000583,false,Rx,0,8,10,22,63,61,74,65,67,6F,
18163777,00000603,false,Rx,0,8,60,00,00,00,00,00,00,00,
18164331,00000583,false,Rx,0,8,00,72,79,22,3A,22,54,68,
18164912,00000603,false,Rx,0,8,70,00,00,00,00,00,00,00,
18165449,00000583,false,Rx,0,8,10,72,6F,74,74,6C,65,22,
18166037,00000603,false,Rx,0,8,60,00,00,00,00,00,00,00,
18166571,00000583,false,Rx,0,8,00,2C,22,69,22,3A,32,37,
18167180,00000603,false,Rx,0,8,70,00,00,00,00,00,00,00,
18167753,00000583,false,Rx,0,8,10,7D,2C,0D,0A,20,20,20,
18168336,00000603,false,Rx,0,8,60,00,00,00,00,00,00,00,
18168884,00000583,false,Rx,0,8,00,22,74,68,72,6F,74,72,
18169473,00000603,false,Rx,0,8,70,00,00,00,00,00,00,00,
18170018,00000583,false,Rx,0,8,10,61,6D,70,22,3A,20,7B,
18170589,00000603,false,Rx,0,8,60,00,00,00,00,00,00,00,
18171111,00000583,false,Rx,0,8,00,22,75,6E,69,74,22,3A,
18171661,00000603,false,Rx,0,8,70,00,00,00,00,00,00,00,
18172210,00000583,false,Rx,0,8,10,22,25,2F,31,30,6D,73,
18172777,00000603,false,Rx,0,8,60,00,00,00,00,00,00,00,
18173325,00000583,false,Rx,0,8,00,22,2C,22,69,64,22,3A,
18173875,00000603,false,Rx,0,8,70,00,00,00,00,00,00,00,
18174421,00000583,false,Rx,0,8,10,31,33,2C,22,76,61,6C,
18174935,00000603,false,Rx,0,8,60,00,00,00,00,00,00,00,
18175472,00000583,false,Rx,0,8,00,75,65,22,3A,31,30,30,
18175984,00000603,false,Rx,0,8,70,00,00,00,00,00,00,00,
18176526,00000583,false,Rx,0,8,10,2E,30,30,2C,22,69,73,
18177092,00000603,false,Rx,0,8,60,00,00,00,00,00,00,00,
18177627,00000583,false,Rx,0,8,00,70,61,72,61,6D,22,3A,
18178198,00000603,false,Rx,0,8,70,00,00,00,00,00,00,00,
18178747,00000583,false,Rx,0,8,10,74,72,75,65,2C,22,6D,
18179333,00000603,false,Rx,0,8,60,00,00,00,00,00,00,00,
18179873,00000583,false,Rx,0,8,00,69,6E,69,6D,75,6D,22,
18180451,00000603,false,Rx,0,8,70,00,00,00,00,00,00,00,
18180994,00000583,false,Rx,0,8,10,3A,30,2E,30,39,2C,22,
18181561,00000603,false,Rx,0,8,60,00,00,00,00,00,00,00,
18182104,00000583,false,Rx,0,8,00,6D,61,78,69,6D,75,6D,
18182668,00000603,false,Rx,0,8,70,00,00,00,00,00,00,00,
18183269,00000583,false,Rx,0,8,10,22,3A,31,30,30,2E,30,
18183737,00000603,false,Rx,0,8,60,00,00,00,00,00,00,00,
18184273,00000583,false,Rx,0,8,00,30,2C,22,64,65,66,61,
18184801,00000603,false,Rx,0,8,70,00,00,00,00,00,00,00,
18185370,00000583,false,Rx,0,8,10,75,6C,74,22,3A,31,30,
18185962,00000603,false,Rx,0,8,60,00,00,00,00,00,00,00,
18186596,00000583,false,Rx,0,8,00,30,2E,30,30,2C,22,63,
18187358,00000603,false,Rx,0,8,70,00,00,00,00,00,00,00,
18187892,00000583,false,Rx,0,8,10,61,74,65,67,6F,72,79,
18188594,00000603,false,Rx,0,8,60,00,00,00,00,00,00,00,
18189112,00000583,false,Rx,0,8,00,22,3A,22,54,68,72,6F,
18189741,00000603,false,Rx,0,8,70,00,00,00,00,00,00,00,
18190319,00000583,false,Rx,0,8,10,74,74,6C,65,22,2C,22,
18190892,00000603,false,Rx,0,8,60,00,00,00,00,00,00,00,
18191447,00000583,false,Rx,0,8,00,69,22,3A,32,38,7D,2C,
18191992,00000603,false,Rx,0,8,70,00,00,00,00,00,00,00,
18192478,00000583,false,Rx,0,8,10,0D,0A,20,20,20,22,74,
18193011,00000603,false,Rx,0,8,60,00,00,00,00,00,00,00,
18193570,00000583,false,Rx,0,8,00,68,72,6F,74,72,61,6D,
18194057,00000603,false,Rx,0,8,70,00,00,00,00,00,00,00,
18194648,00000583,false,Rx,0,8,10,70,72,70,6D,22,3A,20,
18195198,00000603,false,Rx,0,8,60,00,00,00,00,00,00,00,
18195746,00000583,false,Rx,0,8,00,7B,22,75,6E,69,74,22,
18196330,00000603,false,Rx,0,8,70,00,00,00,00,00,00,00,
18196872,00000583,false,Rx,0,8,10,3A,22,72,70,6D,22,2C,
18197463,00000603,false,Rx,0,8,60,00,00,00,00,00,00,00,
18198006,00000583,false,Rx,0,8,00,22,69,64,22,3A,31,34,
18198542,00000603,false,Rx,0,8,70,00,00,00,00,00,00,00,
18199089,00000583,false,Rx,0,8,10,2C,22,76,61,6C,75,65,
18199627,00000603,false,Rx,0,8,60,00,00,00,00,00,00,00,
18200200,00000583,false,Rx,0,8,00,22,3A,32,30,30,30,30,
18200735,00000603,false,Rx,0,8,70,00,00,00,00,00,00,00,
18201327,00000583,false,Rx,0,8,10,2E,30,30,2C,22,69,73,
18201860,00000603,false,Rx,0,8,60,00,00,00,00,00,00,00,
18202399,00000583,false,Rx,0,8,00,70,61,72,61,6D,22,3A,
18202940,00000603,false,Rx,0,8,70,00,00,00,00,00,00,00,
18203478,00000583,false,Rx,0,8,10,74,72,75,65,2C,22,6D,
18204016,00000603,false,Rx,0,8,60,00,00,00,00,00,00,00,
18204557,00000583,false,Rx,0,8,00,69,6E,69,6D,75,6D,22,
18205114,00000603,false,Rx,0,8,70,00,00,00,00,00,00,00,
18205650,00000583,false,Rx,0,8,10,3A,30,2E,30,30,2C,22,
18206226,00000603,false,Rx,0,8,60,00,00,00,00,00,00,00,
18206779,00000583,false,Rx,0,8,00,6D,61,78,69,6D,75,6D,
18207378,00000603,false,Rx,0,8,70,00,00,00,00,00,00,00,
18207924,00000583,false,Rx,0,8,10,22,3A,32,30,30,30,30,
18208488,00000603,false,Rx,0,8,60,00,00,00,00,00,00,00,
18209051,00000583,false,Rx,0,8,00,2E,30,30,2C,22,64,65,
18209590,00000603,false,Rx,0,8,70,00,00,00,00,00,00,00,
18210119,00000583,false,Rx,0,8,10,66,61,75,6C,74,22,3A,
18210665,00000603,false,Rx,0,8,60,00,00,00,00,00,00,00,
18211227,00000583,false,Rx,0,8,00,32,30,30,30,30,2E,30,
18211767,00000603,false,Rx,0,8,70,00,00,00,00,00,00,00,
18212331,00000583,false,Rx,0,8,10,30,2C,22,63,61,74,65,
18212868,00000603,false,Rx,0,8,60,00,00,00,00,00,00,00,
18213402,00000583,false,Rx,0,8,00,67,6F,72,79,22,3A,22,
18213942,00000603,false,Rx,0,8,70,00,00,00,00,00,00,00,
18214461,00000583,false,Rx,0,8,10,54,68,72,6F,74,74,6C,
18214837,00000603,false,Rx,0,8,60,00,00,00,00,00,00,00,
18215384,00000583,false,Rx,0,8,00,65,22,2C,22,69,22,3A,
18215769,00000603,false,Rx,0,8,70,00,00,00,00,00,00,00,
18216313,00000583,false,Rx,0,8,10,32,39,7D,2C,0D,0A,20,
18216695,00000603,false,Rx,0,8,60,00,00,00,00,00,00,00,
18217240,00000583,false,Rx,0,8,00,20,20,22,72,65,76,6C,
18217623,00000603,false,Rx,0,8,70,00,00,00,00,00,00,00,
18218178,00000583,false,Rx,0,8,10,69,6D,22,3A,20,7B,22,
18218552,00000603,false,Rx,0,8,60,00,00,00,00,00,00,00,
18219108,00000583,false,Rx,0,8,00,75,6E,69,74,22,3A,22,
18219483,00000603,false,Rx,0,8,70,00,00,00,00,00,00,00,
18220023,00000583,false,Rx,0,8,10,72,70,6D,22,2C,22,69,
18220395,00000603,false,Rx,0,8,60,00,00,00,00,00,00,00,
18220932,00000583,false,Rx,0,8,00,64,22,3A,31,35,2C,22,
18221323,00000603,false,Rx,0,8,70,00,00,00,00,00,00,00,
18221916,00000583,false,Rx,0,8,10,76,61,6C,75,65,22,3A,
18222325,00000603,false,Rx,0,8,60,00,00,00,00,00,00,00,
18222864,00000583,false,Rx,0,8,00,36,30,30,30,2E,30,30,
18223326,00000603,false,Rx,0,8,70,00,00,00,00,00,00,00,
18223869,00000583,false,Rx,0,8,10,2C,22,69,73,70,61,72,
18224197,00000603,false,Rx,0,8,60,00,00,00,00,00,00,00,
18224740,00000583,false,Rx,0,8,00,61,6D,22,3A,74,72,75,
18224998,00000603,false,Rx,0,8,70,00,00,00,00,00,00,00,
18225598,00000583,false,Rx,0,8,10,65,2C,22,6D,69,6E,69,
18225906,00000603,false,Rx,0,8,60,00,00,00,00,00,00,00,
18226441,00000583,false,Rx,0,8,00,6D,75,6D,22,3A,30,2E,
18226755,00000603,false,Rx,0,8,70,00,00,00,00,00,00,00,
18227318,00000583,false,Rx,0,8,10,30,30,2C,22,6D,61,78,
18227633,00000603,false,Rx,0,8,60,00,00,00,00,00,00,00,
18228179,00000583,false,Rx,0,8,00,69,6D,75,6D,22,3A,32,
18228497,00000603,false,Rx,0,8,70,00,00,00,00,00,00,00,
18229058,00000583,false,Rx,0,8,10,30,30,30,30,2E,30,30,
18229379,00000603,false,Rx,0,8,60,00,00,00,00,00,00,00,
18229921,00000583,false,Rx,0,8,00,2C,22,64,65,66,61,75,
18230241,00000603,false,Rx,0,8,70,00,00,00,00,00,00,00,
18230791,00000583,false,Rx,0,8,10,6C,74,22,3A,36,30,30,
18231113,00000603,false,Rx,0,8,60,00,00,00,00,00,00,00,
18231641,00000583,false,Rx,0,8,00,30,2E,30,30,2C,22,63,
18231944,00000603,false,Rx,0,8,70,00,00,00,00,00,00,00,
18232477,00000583,false,Rx,0,8,10,61,74,65,67,6F,72,79,
18232714,00000603,false,Rx,0,8,60,00,00,00,00,00,00,00,
18233261,00000583,false,Rx,0,8,00,22,3A,22,54,68,72,6F,
18233605,00000603,false,Rx,0,8,70,00,00,00,00,00,00,00,
18234202,00000583,false,Rx,0,8,10,74,74,6C,65,22,2C,22,
18234476,00000603,false,Rx,0,8,60,00,00,00,00,00,00,00,
18235032,00000583,false,Rx,0,8,00,69,22,3A,33,30,7D,2C,
18235297,00000603,false,Rx,0,8,70,00,00,00,00,00,00,00,
18235916,00000583,false,Rx,0,8,10,0D,0A,20,20,20,22,62,
18236290,00000603,false,Rx,0,8,60,00,00,00,00,00,00,00,
18236917,00000583,false,Rx,0,8,00,6D,73,6C,69,6D,68,69,
18237152,00000603,false,Rx,0,8,70,00,00,00,00,00,00,00,
18237982,00000583,false,Rx,0,8,10,67,68,22,3A,20,7B,22,
18238303,00000603,false,Rx,0,8,60,00,00,00,00,00,00,00,
18239099,00000583,false,Rx,0,8,00,75,6E,69,74,22,3A,22,
18239356,00000603,false,Rx,0,8,70,00,00,00,00,00,00,00,
18239947,00000583,false,Rx,0,8,10,25,22,2C,22,69,64,22,
18240295,00000603,false,Rx,0,8,60,00,00,00,00,00,00,00,
18240900,00000583,false,Rx,0,8,00,3A,31,37,2C,22,76,61,
18241161,00000603,false,Rx,0,8,70,00,00,00,00,00,00,00,
18241744,00000583,false,Rx,0,8,10,6C,75,65,22,3A,35,30,
18242072,00000603,false,Rx,0,8,60,00,00,00,00,00,00,00,
18242671,00000583,false,Rx,0,8,00,2E,30,30,2C,22,69,73,
18243006,00000603,false,Rx,0,8,70,00,00,00,00,00,00,00,
18243596,00000583,false,Rx,0,8,10,70,61,72,61,6D,22,3A,
18243904,00000603,false,Rx,0,8,60,00,00,00,00,00,00,00,
18244794,00000583,false,Rx,0,8,00,74,72,75,65,2C,22,6D,
18245223,00000603,false,Rx,0,8,70,00,00,00,00,00,00,00,
18246032,00000583,false,Rx,0,8,10,69,6E,69,6D,75,6D,22,
18246393,00000603,false,Rx,0,8,60,00,00,00,00,00,00,00,
18247177,00000583,false,Rx,0,8,00,3A,30,2E,30,30,2C,22,
18247543,00000603,false,Rx,0,8,70,00,00,00,00,00,00,00,
18248196,00000583,false,Rx,0,8,10,6D,61,78,69,6D,75,6D,
18248523,00000603,false,Rx,0,8,60,00,00,00,00,00,00,00,
18249204,00000583,false,Rx,0,8,00,22,3A,31,30,30,2E,30,
18249497,00000603,false,Rx,0,8,70,00,00,00,00,00,00,00,
18250179,00000583,false,Rx,0,8,10,30,2C,22,64,65,66,61,
18250434,00000603,false,Rx,0,8,60,00,00,00,00,00,00,00,
18251015,00000583,false,Rx,0,8,00,75,6C,74,22,3A,35,30,
18251326,00000603,false,Rx,0,8,70,00,00,00,00,00,00,00,
18251943,00000583,false,Rx,0,8,10,2E,30,30,2C,22,63,61,
18252383,00000603,false,Rx,0,8,60,00,00,00,00,00,00,00,
18253143,00000583,false,Rx,0,8,00,74,65,67,6F,72,79,22,
18253386,00000603,false,Rx,0,8,70,00,00,00,00,00,00,00,
18254139,00000583,false,Rx,0,8,10,3A,22,54,68,72,6F,74,
18254379,00000603,false,Rx,0,8,60,00,00,00,00,00,00,00,
18255171,00000583,false,Rx,0,8,00,74,6C,65,22,2C,22,69,
18255452,00000603,false,Rx,0,8,70,00,00,00,00,00,00,00,
18256177,00000583,false,Rx,0,8,10,22,3A,33,31,7D,2C,0D,
18256451,00000603,false,Rx,0,8,60,00,00,00,00,00,00,00,
18257166,00000583,false,Rx,0,8,00,0A,20,20,20,22,62,6D,
18257448,00000603,false,Rx,0,8,70,00,00,00,00,00,00,00,
18258176,00000583,false,Rx,0,8,10,73,6C,69,6D,6C,6F,77,
18258517,00000603,false,Rx,0,8,60,00,00,00,00,00,00,00,
18259217,00000583,false,Rx,0,8,00,22,3A,20,7B,22,75,6E,
18259505,00000603,false,Rx,0,8,70,00,00,00,00,00,00,00,
18260198,00000583,false,Rx,0,8,10,69,74,22,3A,22,25,22,
18260440,00000603,false,Rx,0,8,60,00,00,00,00,00,00,00,
18261168,00000583,false,Rx,0,8,00,2C,22,69,64,22,3A,31,
18261412,00000603,false,Rx,0,8,70,00,00,00,00,00,00,00,
18262182,00000583,false,Rx,0,8,10,38,2C,22,76,61,6C,75,
18262430,00000603,false,Rx,0,8,60,00,00,00,00,00,00,00,
18263178,00000583,false,Rx,0,8,00,65,22,3A,2D,31,2E,30,
18263427,00000603,false,Rx,0,8,70,00,00,00,00,00,00,00,
18264174,00000583,false,Rx,0,8,10,30,2C,22,69,73,70,61,
18264420,00000603,false,Rx,0,8,60,00,00,00,00,00,00,00,
18265129,00000583,false,Rx,0,8,00,72,61,6D,22,3A,74,72,
18265372,00000603,false,Rx,0,8,70,00,00,00,00,00,00,00,
18266092,00000583,false,Rx,0,8,10,75,65,2C,22,6D,69,6E,
18266387,00000603,false,Rx,0,8,60,00,00,00,00,00,00,00,
18267173,00000583,false,Rx,0,8,00,69,6D,75,6D,22,3A,2D,
18267426,00000603,false,Rx,0,8,70,00,00,00,00,00,00,00,
18268179,00000583,false,Rx,0,8,10,31,30,30,2E,30,30,2C,
18268415,00000603,false,Rx,0,8,60,00,00,00,00,00,00,00,
18269174,00000583,false,Rx,0,8,00,22,6D,61,78,69,6D,75,
18269421,00000603,false,Rx,0,8,70,00,00,00,00,00,00,00,
18270181,00000583,false,Rx,0,8,10,6D,22,3A,30,2E,30,30,
18270465,00000603,false,Rx,0,8,60,00,00,00,00,00,00,00,
18271176,00000583,false,Rx,0,8,00,2C,22,64,65,66,61,75,
18271439,00000603,false,Rx,0,8,70,00,00,00,00,00,00,00,
18272180,00000583,false,Rx,0,8,10,6C,74,22,3A,2D,31,2E,
18272430,00000603,false,Rx,0,8,60,00,00,00,00,00,00,00,
18273176,00000583,false,Rx,0,8,00,30,30,2C,22,63,61,74,
18273440,00000603,false,Rx,0,8,70,00,00,00,00,00,00,00,
18274186,00000583,false,Rx,0,8,10,65,67,6F,72,79,22,3A,
18274466,00000603,false,Rx,0,8,60,00,00,00,00,00,00,00,
18275215,00000583,false,Rx,0,8,00,22,54,68,72,6F,74,74,
18275495,00000603,false,Rx,0,8,70,00,00,00,00,00,00,00,
18276229,00000583,false,Rx,0,8,10,6C,65,22,2C,22,69,22,
18276514,00000603,false,Rx,0,8,60,00,00,00,00,00,00,00,
18277428,00000583,false,Rx,0,8,00,3A,33,32,7D,2C,0D,0A,
18277909,00000603,false,Rx,0,8,70,00,00,00,00,00,00,00,
18278780,00000583,false,Rx,0,8,10,20,20,20,22,75,64,63,
18279288,00000603,false,Rx,0,8,60,00,00,00,00,00,00,00,
18280107,00000583,false,Rx,0,8,00,6D,69,6E,22,3A,20,7B,
18280482,00000603,false,Rx,0,8,70,00,00,00,00,00,00,00,
18281195,00000583,false,Rx,0,8,10,22,75,6E,69,74,22,3A,
18281618,00000603,false,Rx,0,8,60,00,00,00,00,00,00,00,
18282204,00000583,false,Rx,0,8,00,22,56,22,2C,22,69,64,
18282630,00000603,false,Rx,0,8,70,00,00,00,00,00,00,00,
18283217,00000583,false,Rx,0,8,10,22,3A,31,39,2C,22,76,
18283634,00000603,false,Rx,0,8,60,00,00,00,00,00,00,00,
18284219,00000583,false,Rx,0,8,00,61,6C,75,65,22,3A,34,
18284642,00000603,false,Rx,0,8,70,00,00,00,00,00,00,00,
18285226,00000583,false,Rx,0,8,10,35,30,2E,30,30,2C,22,
18285642,00000603,false,Rx,0,8,60,00,00,00,00,00,00,00,
18286209,00000583,false,Rx,0,8,00,69,73,70,61,72,61,6D,
18286680,00000603,false,Rx,0,8,70,00,00,00,00,00,00,00,
18287417,00000583,false,Rx,0,8,10,22,3A,74,72,75,65,2C,
18287934,00000603,false,Rx,0,8,60,00,00,00,00,00,00,00,
18288738,00000583,false,Rx,0,8,00,22,6D,69,6E,69,6D,75,
18289328,00000603,false,Rx,0,8,70,00,00,00,00,00,00,00,
18289945,00000583,false,Rx,0,8,10,6D,22,3A,30,2E,30,30,
18290435,00000603,false,Rx,0,8,60,00,00,00,00,00,00,00,
18291124,00000583,false,Rx,0,8,00,2C,22,6D,61,78,69,6D,
18291483,00000603,false,Rx,0,8,70,00,00,00,00,00,00,00,
18292210,00000583,false,Rx,0,8,10,75,6D,22,3A,31,30,30,
18292678,00000603,false,Rx,0,8,60,00,00,00,00,00,00,00,
18293322,00000583,false,Rx,0,8,00,30,2E,30,30,2C,22,64,
18293778,00000603,false,Rx,0,8,70,00,00,00,00,00,00,00,
18294652,00000583,false,Rx,0,8,10,65,66,61,75,6C,74,22,
18295288,00000603,false,Rx,0,8,60,00,00,00,00,00,00,00,
18296059,00000583,false,Rx,0,8,00,3A,34,35,30,2E,30,30,
18296597,00000603,false,Rx,0,8,70,00,00,00,00,00,00,00,
18297169,00000583,false,Rx,0,8,10,2C,22,63,61,74,65,67,
18297714,00000603,false,Rx,0,8,60,00,00,00,00,00,00,00,
18298398,00000583,false,Rx,0,8,00,6F,72,79,22,3A,22,54,
18298991,00000603,false,Rx,0,8,70,00,00,00,00,00,00,00,
18299696,00000583,false,Rx,0,8,10,68,72,6F,74,74,6C,65,
18300293,00000603,false,Rx,0,8,60,00,00,00,00,00,00,00,
18301082,00000583,false,Rx,0,8,00,22,2C,22,69,22,3A,33,
18301624,00000603,false,Rx,0,8,70,00,00,00,00,00,00,00,
18302160,00000583,false,Rx,0,8,10,33,7D,2C,0D,0A,20,20,
18302698,00000603,false,Rx,0,8,60,00,00,00,00,00,00,00,
18303573,00000583,false,Rx,0,8,00,20,22,75,64,63,6C,69,
18304297,00000603,false,Rx,0,8,70,00,00,00,00,00,00,00,
18305101,00000583,false,Rx,0,8,10,6D,22,3A,20,7B,22,75,
18305806,00000603,false,Rx,0,8,60,00,00,00,00,00,00,00,
18306562,00000583,false,Rx,0,8,00,6E,69,74,22,3A,22,56,
18307354,00000603,false,Rx,0,8,70,00,00,00,00,00,00,00,
18308017,00000583,false,Rx,0,8,10,22,2C,22,69,64,22,3A,
18308639,00000603,false,Rx,0,8,60,00,00,00,00,00,00,00,
18309182,00000583,false,Rx,0,8,00,32,30,2C,22,76,61,6C,
18309814,00000603,false,Rx,0,8,70,00,00,00,00,00,00,00,
18310404,00000583,false,Rx,0,8,10,75,65,22,3A,35,32,30,
18311006,00000603,false,Rx,0,8,60,00,00,00,00,00,00,00,
18311544,00000583,false,Rx,0,8,00,2E,30,30,2C,22,69,73,
18312105,00000603,false,Rx,0,8,70,00,00,00,00,00,00,00,
18312659,00000583,false,Rx,0,8,10,70,61,72,61,6D,22,3A,
18313335,00000603,false,Rx,0,8,60,00,00,00,00,00,00,00,
18313875,00000583,false,Rx,0,8,00,74,72,75,65,2C,22,6D,
18314450,00000603,false,Rx,0,8,70,00,00,00,00,00,00,00,
18315000,00000583,false,Rx,0,8,10,69,6E,69,6D,75,6D,22,
18315537,00000603,false,Rx,0,8,60,00,00,00,00,00,00,00,
18316124,00000583,false,Rx,0,8,00,3A,30,2E,30,30,2C,22,
18316669,00000603,false,Rx,0,8,70,00,00,00,00,00,00,00,
18317209,00000583,false,Rx,0,8,10,6D,61,78,69,6D,75,6D,
18317743,00000603,false,Rx,0,8,60,00,00,00,00,00,00,00,
18318320,00000583,false,Rx,0,8,00,22,3A,31,30,30,30,2E,
18318864,00000603,false,Rx,0,8,70,00,00,00,00,00,00,00,
18319400,00000583,false,Rx,0,8,10,30,30,2C,22,64,65,66,
18319940,00000603,false,Rx,0,8,60,00,00,00,00,00,00,00,
18320470,00000583,false,Rx,0,8,00,61,75,6C,74,22,3A,35,
18321009,00000603,false,Rx,0,8,70,00,00,00,00,00,00,00,
18321545,00000583,false,Rx,0,8,10,32,30,2E,30,30,2C,22,
18322066,00000603,false,Rx,0,8,60,00,00,00,00,00,00,00,
18322625,00000583,false,Rx,0,8,00,63,61,74,65,67,6F,72,
18323197,00000603,false,Rx,0,8,70,00,00,00,00,00,00,00,
18323720,00000583,false,Rx,0,8,10,79,22,3A,22,54,68,72,
18324336,00000603,false,Rx,0,8,60,00,00,00,00,00,00,00,
18324880,00000583,false,Rx,0,8,00,6F,74,74,6C,65,22,2C,
18325474,00000603,false,Rx,0,8,70,00,00,00,00,00,00,00,
18326020,00000583,false,Rx,0,8,10,22,69,22,3A,33,34,7D,
18326564,00000603,false,Rx,0,8,60,00,00,00,00,00,00,00,
18327115,00000583,false,Rx,0,8,00,2C,0D,0A,20,20,20,22,
18327672,00000603,false,Rx,0,8,70,00,00,00,00,00,00,00,
18328220,00000583,false,Rx,0,8,10,69,64,63,6D,61,78,22,
18328767,00000603,false,Rx,0,8,60,00,00,00,00,00,00,00,
18329324,00000583,false,Rx,0,8,00,3A,20,7B,22,75,6E,69,
18329870,00000603,false,Rx,0,8,70,00,00,00,00,00,00,00,
18330430,00000583,false,Rx,0,8,10,74,22,3A,22,41,22,2C,
18330970,00000603,false,Rx,0,8,60,00,00,00,00,00,00,00,
18331528,00000583,false,Rx,0,8,00,22,69,64,22,3A,32,31,
18332073,00000603,false,Rx,0,8,70,00,00,00,00,00,00,00,
18332604,00000583,false,Rx,0,8,10,2C,22,76,61,6C,75,65,
18333177,00000603,false,Rx,0,8,60,00,00,00,00,00,00,00,
18333704,00000583,false,Rx,0,8,00,22,3A,35,30,30,30,2E,
18334279,00000603,false,Rx,0,8,70,00,00,00,00,00,00,00,
18334804,00000583,false,Rx,0,8,10,30,30,2C,22,69,73,70,
18335360,00000603,false,Rx,0,8,60,00,00,00,00,00,00,00,
18335907,00000583,false,Rx,0,8,00,61,72,61,6D,22,3A,74,
18336478,00000603,false,Rx,0,8,70,00,00,00,00,00,00,00,
18337039,00000583,false,Rx,0,8,10,72,75,65,2C,22,6D,69,
18337582,00000603,false,Rx,0,8,60,00,00,00,00,00,00,00,
18338096,00000583,false,Rx,0,8,00,6E,69,6D,75,6D,22,3A,
18338644,00000603,false,Rx,0,8,70,00,00,00,00,00,00,00,
18339143,00000583,false,Rx,0,8,10,30,2E,30,30,2C,22,6D,
18339667,00000603,false,Rx,0,8,60,00,00,00,00,00,00,00,
18340221,00000583,false,Rx,0,8,00,61,78,69,6D,75,6D,22,
18340755,00000603,false,Rx,0,8,70,00,00,00,00,00,00,00,
18341325,00000583,false,Rx,0,8,10,3A,35,30,30,30,2E,30,
18341862,00000603,false,Rx,0,8,60,00,00,00,00,00,00,00,
18342404,00000583,false,Rx,0,8,00,30,2C,22,64,65,66,61,
18342940,00000603,false,Rx,0,8,70,00,00,00,00,00,00,00,
18343481,00000583,false,Rx,0,8,10,75,6C,74,22,3A,35,30,
18344021,00000603,false,Rx,0,8,60,00,00,00,00,00,00,00,
18344554,00000583,false,Rx,0,8,00,30,30,2E,30,30,2C,22,
18345073,00000603,false,Rx,0,8,70,00,00,00,00,00,00,00,
18345629,00000583,false,Rx,0,8,10,63,61,74,65,67,6F,72,
18346181,00000603,false,Rx,0,8,60,00,00,00,00,00,00,00,
18346730,00000583,false,Rx,0,8,00,79,22,3A,22,54,68,72,
18347330,00000603,false,Rx,0,8,70,00,00,00,00,00,00,00,
18347879,00000583,false,Rx,0,8,10,6F,74,74,6C,65,22,2C,
18348471,00000603,false,Rx,0,8,60,00,00,00,00,00,00,00,
18349015,00000583,false,Rx,0,8,00,22,69,22,3A,33,35,7D,
18349567,00000603,false,Rx,0,8,70,00,00,00,00,00,00,00,
18350100,00000583,false,Rx,0,8,10,2C,0D,0A,20,20,20,22,
18350640,00000603,false,Rx,0,8,60,00,00,00,00,00,00,00,
18351144,00000583,false,Rx,0,8,00,69,64,63,6D,69,6E,22,
18351676,00000603,false,Rx,0,8,70,00,00,00,00,00,00,00,
18352221,00000583,false,Rx,0,8,10,3A,20,7B,22,75,6E,69,
18352761,00000603,false,Rx,0,8,60,00,00,00,00,00,00,00,
18353324,00000583,false,Rx,0,8,00,74,22,3A,22,41,22,2C,
18353861,00000603,false,Rx,0,8,70,00,00,00,00,00,00,00,
18354406,00000583,false,Rx,0,8,10,22,69,64,22,3A,32,32,
18354948,00000603,false,Rx,0,8,60,00,00,00,00,00,00,00,
18355479,00000583,false,Rx,0,8,00,2C,22,76,61,6C,75,65,
18356036,00000603,false,Rx,0,8,70,00,00,00,00,00,00,00,
18356556,00000583,false,Rx,0,8,10,22,3A,2D,35,30,30,30,
18357054,00000603,false,Rx,0,8,60,00,00,00,00,00,00,00,
18357630,00000583,false,Rx,0,8,00,2E,30,30,2C,22,69,73,
18358216,00000603,false,Rx,0,8,70,00,00,00,00,00,00,00,
18358754,00000583,false,Rx,0,8,10,70,61,72,61,6D,22,3A,
18359332,00000603,false,Rx,0,8,60,00,00,00,00,00,00,00,
18359878,00000583,false,Rx,0,8,00,74,72,75,65,2C,22,6D,
18360457,00000603,false,Rx,0,8,70,00,00,00,00,00,00,00,
18361001,00000583,false,Rx,0,8,10,69,6E,69,6D,75,6D,22,
18361583,00000603,false,Rx,0,8,60,00,00,00,00,00,00,00,
18362095,00000583,false,Rx,0,8,00,3A,2D,35,30,30,30,2E,
18362652,00000603,false,Rx,0,8,70,00,00,00,00,00,00,00,
18363145,00000583,false,Rx,0,8,10,30,30,2C,22,6D,61,78,
18363666,00000603,false,Rx,0,8,60,00,00,00,00,00,00,00,
18364162,00000583,false,Rx,0,8,00,69,6D,75,6D,22,3A,30,
18364692,00000603,false,Rx,0,8,70,00,00,00,00,00,00,00,
18365241,00000583,false,Rx,0,8,10,2E,30,30,2C,22,64,65,
18365788,00000603,false,Rx,0,8,60,00,00,00,00,00,00,00,
18366331,00000583,false,Rx,0,8,00,66,61,75,6C,74,22,3A,
18366872,00000603,false,Rx,0,8,70,00,00,00,00,00,00,00,
18367407,00000583,false,Rx,0,8,10,2D,35,30,30,30,2E,30,
18367977,00000603,false,Rx,0,8,60,00,00,00,00,00,00,00,
18368525,00000583,false,Rx,0,8,00,30,2C,22,63,61,74,65,
18369074,00000603,false,Rx,0,8,70,00,00,00,00,00,00,00,
18369604,00000583,false,Rx,0,8,10,67,6F,72,79,22,3A,22,
18370175,00000603,false,Rx,0,8,60,00,00,00,00,00,00,00,
18370729,00000583,false,Rx,0,8,00,54,68,72,6F,74,74,6C,
18371336,00000603,false,Rx,0,8,70,00,00,00,00,00,00,00,
18371930,00000583,false,Rx,0,8,10,65,22,2C,22,69,22,3A,
18372474,00000603,false,Rx,0,8,60,00,00,00,00,00,00,00,
18373008,00000583,false,Rx,0,8,00,33,36,7D,2C,0D,0A,20,
18373522,00000603,false,Rx,0,8,70,00,00,00,00,00,00,00,
18374082,00000583,false,Rx,0,8,10,20,20,22,74,6D,70,68,
18374569,00000603,false,Rx,0,8,60,00,00,00,00,00,00,00,
18375114,00000583,false,Rx,0,8,00,73,6D,61,78,22,3A,20,
18375633,00000603,false,Rx,0,8,70,00,00,00,00,00,00,00,
18376122,00000583,false,Rx,0,8,10,7B,22,75,6E,69,74,22,
18376840,00000603,false,Rx,0,8,60,00,00,00,00,00,00,00,
18377373,00000583,false,Rx,0,8,00,3A,22,C2,B0,43,22,2C,
18377964,00000603,false,Rx,0,8,70,00,00,00,00,00,00,00,
18378496,00000583,false,Rx,0,8,10,22,69,64,22,3A,32,33,
18379019,00000603,false,Rx,0,8,60,00,00,00,00,00,00,00,
18379576,00000583,false,Rx,0,8,00,2C,22,76,61,6C,75,65,
18380138,00000603,false,Rx,0,8,70,00,00,00,00,00,00,00,
18380879,00000583,false,Rx,0,8,10,22,3A,38,35,2E,30,30,
18381565,00000603,false,Rx,0,8,60,00,00,00,00,00,00,00,
18382118,00000583,false,Rx,0,8,00,2C,22,69,73,70,61,72,
18382506,00000603,false,Rx,0,8,70,00,00,00,00,00,00,00,
18383141,00000583,false,Rx,0,8,10,61,6D,22,3A,74,72,75,
18383642,00000603,false,Rx,0,8,60,00,00,00,00,00,00,00,
18384238,00000583,false,Rx,0,8,00,65,2C,22,6D,69,6E,69,
18384711,00000603,false,Rx,0,8,70,00,00,00,00,00,00,00,
18385347,00000583,false,Rx,0,8,10,6D,75,6D,22,3A,35,30,
18385910,00000603,false,Rx,0,8,60,00,00,00,00,00,00,00,
18386500,00000583,false,Rx,0,8,00,2E,30,30,2C,22,6D,61,
18386979,00000603,false,Rx,0,8,70,00,00,00,00,00,00,00,
18387527,00000583,false,Rx,0,8,10,78,69,6D,75,6D,22,3A,
18388145,00000603,false,Rx,0,8,60,00,00,00,00,00,00,00,
18388689,00000583,false,Rx,0,8,00,31,35,30,2E,30,30,2C,
18389351,00000603,false,Rx,0,8,70,00,00,00,00,00,00,00,
18389896,00000583,false,Rx,0,8,10,22,64,65,66,61,75,6C,
18390491,00000603,false,Rx,0,8,60,00,00,00,00,00,00,00,
18391085,00000583,false,Rx,0,8,00,74,22,3A,38,35,2E,30,
18391557,00000603,false,Rx,0,8,70,00,00,00,00,00,00,00,
18392110,00000583,false,Rx,0,8,10,30,2C,22,63,61,74,65,
18392526,00000603,false,Rx,0,8,60,00,00,00,00,00,00,00,
18393066,00000583,false,Rx,0,8,00,67,6F,72,79,22,3A,22,
18393470,00000603,false,Rx,0,8,70,00,00,00,00,00,00,00,
18394004,00000583,false,Rx,0,8,10,54,68,72,6F,74,74,6C,
18394456,00000603,false,Rx,0,8,60,00,00,00,00,00,00,00,
18395034,00000583,false,Rx,0,8,00,65,22,2C,22,69,22,3A,
18395458,00000603,false,Rx,0,8,70,00,00,00,00,00,00,00,
18396083,00000583,false,Rx,0,8,10,33,37,7D,2C,0D,0A,20,
18396793,00000603,false,Rx,0,8,60,00,00,00,00,00,00,00,
18397371,00000583,false,Rx,0,8,00,20,20,22,74,6D,70,6D,
18397870,00000603,false,Rx,0,8,70,00,00,00,00,00,00,00,
18398476,00000583,false,Rx,0,8,10,6D,61,78,22,3A,20,7B,
18398967,00000603,false,Rx,0,8,60,00,00,00,00,00,00,00,
18399551,00000583,false,Rx,0,8,00,22,75,6E,69,74,22,3A,
18400067,00000603,false,Rx,0,8,70,00,00,00,00,00,00,00,
18400632,00000583,false,Rx,0,8,10,22,C2,B0,43,22,2C,22,
18401173,00000603,false,Rx,0,8,60,00,00,00,00,00,00,00,
18401780,00000583,false,Rx,0,8,00,69,64,22,3A,32,34,2C,
18402330,00000603,false,Rx,0,8,70,00,00,00,00,00,00,00,
18402929,00000583,false,Rx,0,8,10,22,76,61,6C,75,65,22,
18403451,00000603,false,Rx,0,8,60,00,00,00,00,00,00,00,
18404061,00000583,false,Rx,0,8,00,3A,33,30,30,2E,30,30,
18404575,00000603,false,Rx,0,8,70,00,00,00,00,00,00,00,
18405130,00000583,false,Rx,0,8,10,2C,22,69,73,70,61,72,
